#  HZ   S   DB   R     50.00 
! Rohde & Schwarz ZVB8 2Ports - Version 3.70 - 1145.1010k08 SN: 100925
! Date: 2021-11-08 13:22:31
! Measurement: S11 
! 
 6.000000000000000E7    -1.933206959494999E-1   1.578096590729036E2  
 6.000200000000000E7    -1.919427082470760E-1   1.577630088184461E2  
 6.000400000000000E7    -1.928672606023019E-1   1.577456945523096E2  
 6.000600000000000E7    -1.962163249662402E-1   1.577192510394048E2  
 6.000800000000000E7    -1.933569132919762E-1   1.576923969383948E2  
 6.001000000000000E7    -1.911260940057089E-1   1.576703138172791E2  
 6.001200000000000E7    -1.962602833488811E-1   1.576207457957468E2  
 6.001400000000000E7    -1.943258625920869E-1   1.575823509177065E2  
 6.001600000000000E7    -1.963877727526942E-1   1.575455824020682E2  
 6.001800000000000E7    -1.944480198587127E-1   1.575312528526609E2  
 6.002000000000000E7    -1.929934224266740E-1   1.575080200071651E2  
 6.002200000000000E7    -1.941344860242564E-1   1.574619684099591E2  
 6.002400000000000E7    -1.938179350160609E-1   1.574165735530179E2  
 6.002600000000000E7    -1.943802767040571E-1   1.573826471492504E2  
 6.002800000000000E7    -1.961796554590704E-1   1.573919769488446E2  
 6.003000000000000E7    -1.932098633690487E-1   1.573335588566635E2  
 6.003200000000000E7    -1.949216078145990E-1   1.572852338198734E2  
 6.003400000000000E7    -1.959108514845366E-1   1.572767535539226E2  
 6.003600000000000E7    -1.941631292704392E-1   1.572400248522621E2  
 6.003800000000000E7    -1.908044253744953E-1   1.572139228900312E2  
 6.004000000000000E7    -1.894053141726655E-1   1.572001776235774E2  
 6.004200000000000E7    -1.955624154626472E-1   1.571350816083028E2  
 6.004400000000000E7    -1.929050564687282E-1   1.570976557003623E2  
 6.004600000000000E7    -1.946899923838349E-1   1.570828150184018E2  
 6.004800000000000E7    -1.940680636606183E-1   1.570487416982457E2  
 6.005000000000000E7    -1.928248669904061E-1   1.569921664878233E2  
 6.005200000000000E7    -1.959217356707552E-1   1.569741215020416E2  
 6.005400000000000E7    -1.975652113508276E-1   1.569479661980210E2  
 6.005600000000000E7    -1.982541204318284E-1   1.568854590315643E2  
 6.005800000000000E7    -1.965199168414785E-1   1.568685351005383E2  
 6.006000000000000E7    -1.948810828666218E-1   1.568501816904275E2  
 6.006200000000000E7    -1.991185391369474E-1   1.567783194749673E2  
 6.006400000000000E7    -1.938544183331570E-1   1.567999737836150E2  
 6.006600000000000E7    -1.915708624078848E-1   1.567407281282098E2  
 6.006800000000000E7    -1.951702610796853E-1   1.567149217433604E2  
 6.007000000000000E7    -2.002312493809586E-1   1.566911012515980E2  
 6.007200000000000E7    -1.930144213237951E-1   1.566375630962327E2  
 6.007400000000000E7    -1.987155946696047E-1   1.566035203474537E2  
 6.007600000000000E7    -1.958489231298361E-1   1.565588158234065E2  
 6.007800000000000E7    -1.948645147069564E-1   1.565627256100730E2  
 6.008000000000000E7    -1.955323932332110E-1   1.565306170712642E2  
 6.008200000000000E7    -1.926414645703257E-1   1.564934813072422E2  
 6.008400000000000E7    -1.952098683500996E-1   1.564456608077850E2  
 6.008600000000000E7    -1.971136694025655E-1   1.564512792745059E2  
 6.008800000000000E7    -1.945756679060300E-1   1.563808105340076E2  
 6.009000000000000E7    -1.936628179655118E-1   1.563402810384355E2  
 6.009200000000000E7    -1.952302675106307E-1   1.563243651328948E2  
 6.009400000000000E7    -1.949774509363811E-1   1.563062692503306E2  
 6.009600000000000E7    -1.976464208639265E-1   1.562473159254768E2  
 6.009800000000000E7    -1.940454440237160E-1   1.562117210750882E2  
 6.010000000000000E7    -1.983304138227107E-1   1.561851448452775E2  
 6.010200000000000E7    -1.966569232964657E-1   1.561629573982288E2  
 6.010400000000000E7    -1.966848839666009E-1   1.561240319088867E2  
 6.010600000000000E7    -1.984992813512050E-1   1.560960317946147E2  
 6.010800000000000E7    -1.968713521175936E-1   1.560866274968938E2  
 6.011000000000000E7    -1.945802379783671E-1   1.560228181096671E2  
 6.011200000000000E7    -1.944502556516543E-1   1.560048342300792E2  
 6.011400000000000E7    -1.954775216326061E-1   1.559744685256425E2  
 6.011600000000000E7    -1.934986653579141E-1   1.559397744540304E2  
 6.011800000000000E7    -1.959181490405846E-1   1.558995614491010E2  
 6.012000000000000E7    -1.980370570250895E-1   1.558959529962864E2  
 6.012200000000000E7    -1.945914460983767E-1   1.558325497451807E2  
 6.012400000000000E7    -2.016845095131570E-1   1.558012262824707E2  
 6.012600000000000E7    -1.964940747968377E-1   1.557839544235940E2  
 6.012800000000000E7    -1.962579117860125E-1   1.557384186512262E2  
 6.013000000000000E7    -1.974296387689699E-1   1.557133501516210E2  
 6.013200000000000E7    -1.952792301250009E-1   1.556844649506925E2  
 6.013400000000000E7    -1.976228019590173E-1   1.556532168167875E2  
 6.013600000000000E7    -1.946295324172274E-1   1.556033682811636E2  
 6.013800000000000E7    -1.996895589482899E-1   1.555920695890331E2  
 6.014000000000000E7    -1.987462564626139E-1   1.555475415385790E2  
 6.014200000000000E7    -1.965947631628028E-1   1.554890410045914E2  
 6.014400000000000E7    -1.982314762013540E-1   1.554702406379375E2  
 6.014600000000000E7    -1.951032730821990E-1   1.554376375324544E2  
 6.014800000000000E7    -2.001866549628152E-1   1.554037901250463E2  
 6.015000000000000E7    -1.959965812846437E-1   1.553771578802520E2  
 6.015200000000000E7    -1.955097132735124E-1   1.553633639138617E2  
 6.015400000000000E7    -1.979440244156029E-1   1.553186567010562E2  
 6.015600000000000E7    -1.984823470094890E-1   1.552766475520782E2  
 6.015800000000000E7    -1.980730599979528E-1   1.552442973913187E2  
 6.016000000000000E7    -1.978956320094481E-1   1.552110681842314E2  
 6.016200000000000E7    -1.969962588706729E-1   1.552150372884454E2  
 6.016400000000000E7    -1.994635976241917E-1   1.551398411213942E2  
 6.016600000000000E7    -1.963528530697343E-1   1.551282527784375E2  
 6.016800000000000E7    -1.986274052161249E-1   1.550835647938739E2  
 6.017000000000000E7    -1.976163431703602E-1   1.550440776634399E2  
 6.017200000000000E7    -1.987574962674123E-1   1.550044908801177E2  
 6.017400000000000E7    -1.962476617374215E-1   1.549723353422464E2  
 6.017600000000000E7    -1.970978051541281E-1   1.549702181042281E2  
 6.017800000000000E7    -1.960793490804371E-1   1.549434440694960E2  
 6.018000000000000E7    -1.997323833368395E-1   1.548952747953888E2  
 6.018200000000000E7    -1.962633265685179E-1   1.548811180919099E2  
 6.018400000000000E7    -1.955352938173632E-1   1.548261537061973E2  
 6.018600000000000E7    -1.977848327956097E-1   1.548047772205976E2  
 6.018800000000000E7    -1.960701713462703E-1   1.547598108396873E2  
 6.019000000000000E7    -1.971728667962358E-1   1.547112995469503E2  
 6.019200000000000E7    -1.937228994576309E-1   1.547035991016481E2  
 6.019400000000000E7    -1.992749803124081E-1   1.546510418803850E2  
 6.019600000000000E7    -1.985172815924386E-1   1.546215089706530E2  
 6.019800000000000E7    -1.990113203152413E-1   1.546074218993500E2  
 6.020000000000000E7    -1.988321213087477E-1   1.545858241328381E2  
 6.020200000000000E7    -1.982138482940039E-1   1.545160260660806E2  
 6.020400000000000E7    -2.012749764674524E-1   1.544771030084232E2  
 6.020600000000000E7    -1.991884774926616E-1   1.544641708033714E2  
 6.020800000000000E7    -1.978917399188857E-1   1.544467350214704E2  
 6.021000000000000E7    -1.982479534055222E-1   1.543773632450895E2  
 6.021200000000000E7    -2.020254008198647E-1   1.543771931906295E2  
 6.021400000000000E7    -1.988321796877554E-1   1.543230741591207E2  
 6.021600000000000E7    -1.990811394121098E-1   1.543068660804882E2  
 6.021800000000000E7    -2.003778651210683E-1   1.542616634941295E2  
 6.022000000000000E7    -2.004890977818210E-1   1.542360361600407E2  
 6.022200000000000E7    -1.977002170556066E-1   1.542090712599526E2  
 6.022400000000000E7    -1.973611872276438E-1   1.541413172875798E2  
 6.022600000000000E7    -2.006797330233857E-1   1.541161073231274E2  
 6.022800000000000E7    -1.948544219956675E-1   1.541252196700429E2  
 6.023000000000000E7    -1.964701311782170E-1   1.540667313812445E2  
 6.023200000000000E7    -1.972930625178677E-1   1.540477527081449E2  
 6.023400000000000E7    -1.966450941914109E-1   1.540018025875051E2  
 6.023600000000000E7    -1.969629493530666E-1   1.539913600715277E2  
 6.023800000000000E7    -1.973831399962170E-1   1.539497399094097E2  
 6.024000000000000E7    -2.007453411887784E-1   1.539080402697777E2  
 6.024200000000000E7    -1.995927661679507E-1   1.538573403682877E2  
 6.024400000000000E7    -1.999827446763928E-1   1.538361384288372E2  
 6.024600000000000E7    -1.953254326355571E-1   1.538095404026805E2  
 6.024800000000000E7    -1.983690338761016E-1   1.537774026666871E2  
 6.025000000000000E7    -2.014468673789684E-1   1.537383830922436E2  
 6.025200000000000E7    -1.991348563769556E-1   1.536862420707172E2  
 6.025400000000000E7    -2.011244665299589E-1   1.536416772187675E2  
 6.025600000000000E7    -1.991936622417137E-1   1.536260384901901E2  
 6.025800000000000E7    -1.968944206997288E-1   1.536042703724251E2  
 6.026000000000000E7    -2.002001903482619E-1   1.536001853428460E2  
 6.026200000000000E7    -2.019524264723466E-1   1.535238294497871E2  
 6.026400000000000E7    -1.957797066860935E-1   1.535118850209625E2  
 6.026600000000000E7    -2.022216289760944E-1   1.534719306629622E2  
 6.026800000000000E7    -1.971436771564938E-1   1.534173459635552E2  
 6.027000000000000E7    -2.010478316615554E-1   1.534035098323499E2  
 6.027200000000000E7    -2.033839975517584E-1   1.533864299451158E2  
 6.027400000000000E7    -1.985854399173807E-1   1.533413742182403E2  
 6.027600000000000E7    -1.969011803070558E-1   1.533082950991879E2  
 6.027800000000000E7    -1.991119223811934E-1   1.532719051549869E2  
 6.028000000000000E7    -1.998560757415264E-1   1.532300760054856E2  
 6.028200000000000E7    -1.994008471068560E-1   1.532086926288959E2  
 6.028400000000000E7    -2.009252081344690E-1   1.531609944785576E2  
 6.028600000000000E7    -1.988079382842739E-1   1.531359837362143E2  
 6.028800000000000E7    -2.020942219880475E-1   1.531058108295424E2  
 6.029000000000000E7    -2.003494709345735E-1   1.530628959851743E2  
 6.029200000000000E7    -2.001716221687362E-1   1.530258421098307E2  
 6.029400000000000E7    -1.970299530235525E-1   1.530029546324751E2  
 6.029600000000000E7    -2.007613939148725E-1   1.529951617195949E2  
 6.029800000000000E7    -2.028748866844594E-1   1.529602733163103E2  
 6.030000000000000E7    -2.003777160872814E-1   1.528953585057067E2  
 6.030200000000000E7    -1.994124880227509E-1   1.528878825672912E2  
 6.030400000000000E7    -1.985220777347783E-1   1.528298387727820E2  
 6.030600000000000E7    -1.987898867430682E-1   1.527998032850931E2  
 6.030800000000000E7    -2.011931017809742E-1   1.527721720635947E2  
 6.031000000000000E7    -2.017859421120378E-1   1.527369123057342E2  
 6.031200000000000E7    -1.988194113989332E-1   1.527062689747291E2  
 6.031400000000000E7    -2.011367541807506E-1   1.526691363719070E2  
 6.031600000000000E7    -1.997488042226749E-1   1.526402863133791E2  
 6.031800000000000E7    -2.023986799274149E-1   1.525965738833483E2  
 6.032000000000000E7    -1.979172393778516E-1   1.525613060285901E2  
 6.032200000000000E7    -2.000554501235619E-1   1.525671039431880E2  
 6.032400000000000E7    -2.023876119332458E-1   1.525005045016758E2  
 6.032600000000000E7    -2.026763413277159E-1   1.524850209249727E2  
 6.032800000000000E7    -2.000563998333435E-1   1.524511790556773E2  
 6.033000000000000E7    -2.024340442102385E-1   1.524120356669043E2  
 6.033200000000000E7    -2.022282363063589E-1   1.523724936853920E2  
 6.033400000000000E7    -2.016955607364811E-1   1.523349754321077E2  
 6.033600000000000E7    -1.993087145688697E-1   1.523118261249310E2  
 6.033800000000000E7    -2.010523122304836E-1   1.522599348486711E2  
 6.034000000000000E7    -1.990608399739286E-1   1.521995181188832E2  
 6.034200000000000E7    -2.013047525389890E-1   1.522092064915277E2  
 6.034400000000000E7    -1.995459450166220E-1   1.521893903259668E2  
 6.034600000000000E7    -2.037801653835086E-1   1.521395680033033E2  
 6.034800000000000E7    -1.997487610994924E-1   1.521124565349615E2  
 6.035000000000000E7    -2.014591760051173E-1   1.520696566886293E2  
 6.035200000000000E7    -2.015979336031852E-1   1.520425612802350E2  
 6.035400000000000E7    -2.021131018146992E-1   1.520001866373307E2  
 6.035600000000000E7    -2.003293624485285E-1   1.519652013358263E2  
 6.035800000000000E7    -2.006666600996268E-1   1.519306362807166E2  
 6.036000000000000E7    -2.013990455367119E-1   1.519158408260073E2  
 6.036200000000000E7    -1.983571545129955E-1   1.518627623807131E2  
 6.036400000000000E7    -1.992049622461968E-1   1.518347913817003E2  
 6.036600000000000E7    -2.018155047864542E-1   1.517798412098597E2  
 6.036800000000000E7    -1.984683799807093E-1   1.517718922349808E2  
 6.037000000000000E7    -2.033464846456390E-1   1.517309410301495E2  
 6.037200000000000E7    -2.004954105771091E-1   1.516963027563040E2  
 6.037400000000000E7    -2.006508589110277E-1   1.516659811742196E2  
 6.037600000000000E7    -2.032926892978644E-1   1.516225616806628E2  
 6.037800000000000E7    -2.014474942738153E-1   1.516042143641334E2  
 6.038000000000000E7    -2.030816740136227E-1   1.515737429359958E2  
 6.038200000000000E7    -2.010152687085117E-1   1.515134022639161E2  
 6.038400000000000E7    -1.996104840054199E-1   1.514948161886674E2  
 6.038600000000000E7    -2.020986662704458E-1   1.514640753392367E2  
 6.038800000000000E7    -2.042059104269143E-1   1.514273713195881E2  
 6.039000000000000E7    -2.015159347916910E-1   1.513980892213281E2  
 6.039200000000000E7    -2.026933969689635E-1   1.513730589001667E2  
 6.039400000000000E7    -2.026335689695754E-1   1.513245606674246E2  
 6.039600000000000E7    -2.050685929798288E-1   1.512937281310877E2  
 6.039800000000000E7    -2.025123102001047E-1   1.512673333305253E2  
 6.040000000000000E7    -2.024879304287980E-1   1.512169642907901E2  
 6.040200000000000E7    -2.009938442029407E-1   1.511994373149117E2  
 6.040400000000000E7    -2.016836004674964E-1   1.511773508733051E2  
 6.040600000000000E7    -2.045364743722318E-1   1.511234393999168E2  
 6.040800000000000E7    -2.025578811591225E-1   1.510766836408451E2  
 6.041000000000000E7    -2.000799005598388E-1   1.510622183968294E2  
 6.041200000000000E7    -2.015498522527681E-1   1.510125004063199E2  
 6.041400000000000E7    -2.021097600143137E-1   1.509725033989608E2  
 6.041600000000000E7    -2.062227268242306E-1   1.509641088227599E2  
 6.041800000000000E7    -2.036847826760097E-1   1.509130640687895E2  
 6.042000000000000E7    -2.006288302882075E-1   1.508839713038861E2  
 6.042200000000000E7    -2.035544446561051E-1   1.508309207973776E2  
 6.042400000000000E7    -2.027353808172409E-1   1.508349411869056E2  
 6.042600000000000E7    -2.063313923104107E-1   1.507595079165046E2  
 6.042800000000000E7    -2.035742872532260E-1   1.507457511146675E2  
 6.043000000000000E7    -2.040793285273682E-1   1.507143537780063E2  
 6.043200000000000E7    -2.015923859874853E-1   1.506769192881530E2  
 6.043400000000000E7    -2.050584591541432E-1   1.506627997915698E2  
 6.043600000000000E7    -2.046375443043028E-1   1.506191239574077E2  
 6.043800000000000E7    -2.035537146105836E-1   1.505639392358120E2  
 6.044000000000000E7    -2.062253498370971E-1   1.505243023361458E2  
 6.044200000000000E7    -2.033173773678004E-1   1.505093221242867E2  
 6.044400000000000E7    -2.020338768853789E-1   1.504467263579518E2  
 6.044600000000000E7    -2.026412516793901E-1   1.504593303855524E2  
 6.044800000000000E7    -2.053319984442242E-1   1.504006078386512E2  
 6.045000000000000E7    -2.030345293606104E-1   1.503778831188427E2  
 6.045200000000000E7    -2.041351862605767E-1   1.503465573301595E2  
 6.045400000000000E7    -2.042423477997321E-1   1.503213362569597E2  
 6.045600000000000E7    -2.033562397907851E-1   1.502808009856129E2  
 6.045800000000000E7    -2.024605862902106E-1   1.502318335135406E2  
 6.046000000000000E7    -2.040861942208893E-1   1.502070660228948E2  
 6.046200000000000E7    -2.019602498388378E-1   1.501642561859487E2  
 6.046400000000000E7    -2.075074266972895E-1   1.501329298708225E2  
 6.046600000000000E7    -2.088265917279983E-1   1.500881170842140E2  
 6.046800000000000E7    -2.024946124538616E-1   1.500646401260359E2  
 6.047000000000000E7    -2.051898564050051E-1   1.500210130602941E2  
 6.047200000000000E7    -2.027856638651686E-1   1.499851072387714E2  
 6.047400000000000E7    -2.043126922877088E-1   1.499516427258744E2  
 6.047600000000000E7    -2.046058562874144E-1   1.499424529321347E2  
 6.047800000000000E7    -1.999063345347430E-1   1.498806181795209E2  
 6.048000000000000E7    -2.066775220978214E-1   1.498540699156174E2  
 6.048200000000000E7    -2.034640942120958E-1   1.498245099262475E2  
 6.048400000000000E7    -2.027023983394769E-1   1.497806379803653E2  
 6.048600000000000E7    -2.078199515957738E-1   1.497683258049328E2  
 6.048800000000000E7    -2.065270651081865E-1   1.497121193799817E2  
 6.049000000000000E7    -2.047079882624237E-1   1.496958932044844E2  
 6.049200000000000E7    -2.077004012792101E-1   1.496311577150722E2  
 6.049400000000000E7    -2.039035070145660E-1   1.495881680817911E2  
 6.049600000000000E7    -2.049693030654924E-1   1.495757306422963E2  
 6.049800000000000E7    -2.071475327766892E-1   1.495676642630825E2  
 6.050000000000000E7    -2.064874565221499E-1   1.495026080059739E2  
 6.050200000000000E7    -2.043431220630282E-1   1.494833818969439E2  
 6.050400000000000E7    -2.056008564003351E-1   1.494643188512710E2  
 6.050600000000000E7    -2.056018979786119E-1   1.494023196933773E2  
 6.050800000000000E7    -2.044667016623364E-1   1.493650314654768E2  
 6.051000000000000E7    -2.060845541914645E-1   1.493490036687796E2  
 6.051200000000000E7    -2.077337246412912E-1   1.493055804379921E2  
 6.051400000000000E7    -2.044552072423383E-1   1.492706535305599E2  
 6.051600000000000E7    -2.050116983919833E-1   1.492560430309694E2  
 6.051800000000000E7    -2.041740962326415E-1   1.491909111667854E2  
 6.052000000000000E7    -2.070128179181914E-1   1.491592628554364E2  
 6.052200000000000E7    -2.066499496083156E-1   1.491343060037052E2  
 6.052400000000000E7    -2.047731018775931E-1   1.490980871668659E2  
 6.052600000000000E7    -2.048117648860035E-1   1.490641749540802E2  
 6.052800000000000E7    -2.064923780641780E-1   1.490178999685502E2  
 6.053000000000000E7    -2.035480727949121E-1   1.489849093837544E2  
 6.053200000000000E7    -2.071667705111147E-1   1.489532954020637E2  
 6.053400000000000E7    -2.058191596676065E-1   1.489162954061571E2  
 6.053600000000000E7    -2.059222475228572E-1   1.488626481090917E2  
 6.053800000000000E7    -2.058269997193066E-1   1.488525271475173E2  
 6.054000000000000E7    -2.095588786207877E-1   1.488069113512430E2  
 6.054200000000000E7    -2.060694626949495E-1   1.487780091210835E2  
 6.054400000000000E7    -2.068056426007733E-1   1.487338267234722E2  
 6.054600000000000E7    -2.067272897145355E-1   1.487021144349469E2  
 6.054800000000000E7    -2.034245137652987E-1   1.486655781188293E2  
 6.055000000000000E7    -2.070766670217948E-1   1.486201411491190E2  
 6.055200000000000E7    -2.070198409129532E-1   1.485938852176636E2  
 6.055400000000000E7    -2.048456160676859E-1   1.485528146943514E2  
 6.055600000000000E7    -2.056662339177737E-1   1.485344181892448E2  
 6.055800000000000E7    -2.098889832111474E-1   1.484954353726283E2  
 6.056000000000000E7    -2.055070381591393E-1   1.484591327139813E2  
 6.056200000000000E7    -2.057006740804289E-1   1.484034531594735E2  
 6.056400000000000E7    -2.077982324536428E-1   1.483899219092879E2  
