#  HZ   S   DB   R     50.00 
! Rohde & Schwarz ZVB8 2Ports - Version 3.70 - 1145.1010k08 SN: 100925
! Date: 2021-12-10 17:30:48
! Measurement: S11 
! 
 6.100000000000000E7    -5.930636517984891E-2   1.422936875931780E2  
 6.100150000000000E7    -5.942266097985806E-2   1.422606730839483E2  
 6.100300000000000E7    -5.952267684380087E-2   1.422283352019004E2  
 6.100450000000000E7    -5.930973391914512E-2   1.421990417784789E2  
 6.100600000000000E7    -5.953195957021026E-2   1.421677528538925E2  
 6.100750000000000E7    -5.986658606350870E-2   1.421403850360254E2  
 6.100900000000000E7    -5.911198908889256E-2   1.421119731890545E2  
 6.101050000000000E7    -6.055376408816286E-2   1.420848711534564E2  
 6.101200000000000E7    -5.953061891236069E-2   1.420478794065328E2  
 6.101350000000000E7    -5.934939195122108E-2   1.420230053885608E2  
 6.101500000000000E7    -5.981767148805484E-2   1.419920355225659E2  
 6.101650000000000E7    -5.960617610186560E-2   1.419575456322052E2  
 6.101800000000000E7    -5.937786904577853E-2   1.419311780949548E2  
 6.101950000000000E7    -5.982861930248217E-2   1.419031564166619E2  
 6.102100000000000E7    -5.945859246250172E-2   1.418685295899296E2  
 6.102250000000000E7    -5.956200057323030E-2   1.418419964480202E2  
 6.102400000000000E7    -6.024426475034868E-2   1.418111940691071E2  
 6.102550000000000E7    -6.050574316243830E-2   1.417819688796860E2  
 6.102700000000000E7    -6.092532096791563E-2   1.417497229047881E2  
 6.102850000000000E7    -6.023604952846063E-2   1.417223120583017E2  
 6.103000000000000E7    -6.106870016571738E-2   1.416939333092801E2  
 6.103150000000000E7    -6.068073090139126E-2   1.416595320523574E2  
 6.103300000000000E7    -6.115005101007793E-2   1.416276978656716E2  
 6.103450000000000E7    -6.117611531708656E-2   1.416041367051564E2  
 6.103600000000000E7    -6.193222329638475E-2   1.415700612283934E2  
 6.103750000000000E7    -6.159977511462259E-2   1.415382022494757E2  
 6.103900000000000E7    -6.161649597813604E-2   1.415048822773213E2  
 6.104050000000000E7    -6.145719128362637E-2   1.414756278438229E2  
 6.104200000000000E7    -6.123574710588944E-2   1.414444331355037E2  
 6.104350000000000E7    -6.129257432604750E-2   1.414161133248889E2  
 6.104500000000000E7    -6.146709782283513E-2   1.413841203338205E2  
 6.104650000000000E7    -6.171223400231359E-2   1.413536506024576E2  
 6.104800000000000E7    -6.152107738999283E-2   1.413307606554902E2  
 6.104950000000000E7    -6.222728605476888E-2   1.412937130655069E2  
 6.105100000000000E7    -6.215275437682875E-2   1.412623954145088E2  
 6.105250000000000E7    -6.156272232004482E-2   1.412337645584829E2  
 6.105400000000000E7    -6.220431856610163E-2   1.412000334398309E2  
 6.105550000000000E7    -6.131063775860453E-2   1.411701416371553E2  
 6.105700000000000E7    -6.233289631145763E-2   1.411370697930481E2  
 6.105850000000000E7    -6.180532563917558E-2   1.411019963989662E2  
 6.106000000000000E7    -6.202970093868369E-2   1.410741999889489E2  
 6.106150000000000E7    -6.225310104021240E-2   1.410459895502473E2  
 6.106300000000000E7    -6.260522573344020E-2   1.410154375381039E2  
 6.106450000000000E7    -6.185245937202371E-2   1.409813500614442E2  
 6.106600000000000E7    -6.207135233070343E-2   1.409468134631112E2  
 6.106750000000000E7    -6.184011510244823E-2   1.409212368004831E2  
 6.106900000000000E7    -6.139490335332198E-2   1.408898496853379E2  
 6.107050000000000E7    -6.181287004525306E-2   1.408578220491617E2  
 6.107200000000000E7    -6.207882567361427E-2   1.408245662456384E2  
 6.107350000000000E7    -6.276426444824582E-2   1.407892659949490E2  
 6.107500000000000E7    -6.351337511819462E-2   1.407580460607029E2  
 6.107650000000000E7    -6.324131862364618E-2   1.407240273868274E2  
 6.107800000000000E7    -6.328539336097648E-2   1.406996370914553E2  
 6.107950000000000E7    -6.285983889277226E-2   1.406683571224916E2  
 6.108100000000000E7    -6.356849444505493E-2   1.406335403004694E2  
 6.108250000000000E7    -6.319447017247451E-2   1.406061514561597E2  
 6.108400000000000E7    -6.378867283952303E-2   1.405744968251103E2  
 6.108550000000000E7    -6.366279001986568E-2   1.405414620973373E2  
 6.108700000000000E7    -6.460009511579724E-2   1.405147770169592E2  
 6.108850000000000E7    -6.374376288241276E-2   1.404759682299779E2  
 6.109000000000000E7    -6.453342209563794E-2   1.404498408168465E2  
 6.109150000000000E7    -6.425357374991148E-2   1.404186388584584E2  
 6.109300000000000E7    -6.412380506919925E-2   1.403900531588841E2  
 6.109450000000000E7    -6.414117367346878E-2   1.403539373076042E2  
 6.109600000000000E7    -6.405292791734915E-2   1.403212279887797E2  
 6.109750000000000E7    -6.336132364116663E-2   1.402888757792302E2  
 6.109900000000000E7    -6.346542540525899E-2   1.402502296251758E2  
 6.110050000000000E7    -6.370894680983666E-2   1.402226269269392E2  
 6.110200000000000E7    -6.419572052694895E-2   1.401865981086974E2  
 6.110350000000000E7    -6.478790022223328E-2   1.401598026695744E2  
 6.110500000000000E7    -6.531005957999236E-2   1.401303664405586E2  
 6.110650000000000E7    -6.500057756372800E-2   1.400961808253001E2  
 6.110800000000000E7    -6.495418213467982E-2   1.400609539222985E2  
 6.110950000000000E7    -6.508497923270677E-2   1.400297130719236E2  
 6.111100000000000E7    -6.491735518220861E-2   1.399964616083595E2  
 6.111250000000000E7    -6.520986140230163E-2   1.399581820515244E2  
 6.111400000000000E7    -6.533288381263362E-2   1.399290931360231E2  
 6.111550000000000E7    -6.506614746423049E-2   1.399023043242694E2  
 6.111700000000000E7    -6.575559631235879E-2   1.398660000931337E2  
 6.111850000000000E7    -6.644224307091473E-2   1.398313168718765E2  
 6.112000000000000E7    -6.582957305657021E-2   1.397981815972080E2  
 6.112150000000000E7    -6.645556181807259E-2   1.397643736298496E2  
 6.112300000000000E7    -6.663518700481437E-2   1.397361277270720E2  
 6.112450000000000E7    -6.594118382264982E-2   1.397027660154469E2  
 6.112600000000000E7    -6.616317965856546E-2   1.396682177398571E2  
 6.112750000000000E7    -6.662525885053766E-2   1.396351673883133E2  
 6.112900000000000E7    -6.674291504305768E-2   1.396005015541732E2  
 6.113050000000000E7    -6.621443108648646E-2   1.395662748077202E2  
 6.113200000000000E7    -6.622278127487809E-2   1.395306332000502E2  
 6.113350000000000E7    -6.702885831552133E-2   1.394954924134688E2  
 6.113500000000000E7    -6.687091777334549E-2   1.394676128192145E2  
 6.113650000000000E7    -6.627920800011027E-2   1.394337507714908E2  
 6.113800000000000E7    -6.791130403384932E-2   1.393989293509059E2  
 6.113950000000000E7    -6.723111781952519E-2   1.393647898016238E2  
 6.114100000000000E7    -6.701889819388406E-2   1.393326505067832E2  
 6.114250000000000E7    -6.737367484613241E-2   1.393023963895310E2  
 6.114400000000000E7    -6.827341036169864E-2   1.392633937386983E2  
 6.114550000000000E7    -6.783609774178143E-2   1.392284166744945E2  
 6.114700000000000E7    -6.837165154810695E-2   1.392044312467335E2  
 6.114850000000000E7    -6.804976046578455E-2   1.391696320488411E2  
 6.115000000000000E7    -6.787704960003520E-2   1.391311576292697E2  
 6.115150000000000E7    -6.884664705403960E-2   1.390937211753601E2  
 6.115300000000000E7    -6.811631677886133E-2   1.390627247801981E2  
 6.115450000000000E7    -6.889102654636828E-2   1.390262708852665E2  
 6.115600000000000E7    -6.831556067208568E-2   1.389927408760749E2  
 6.115750000000000E7    -6.919567258503466E-2   1.389607523310807E2  
 6.115900000000000E7    -6.989622527264734E-2   1.389217278323934E2  
 6.116050000000000E7    -6.979938442265857E-2   1.388871143561472E2  
 6.116200000000000E7    -6.918895955759616E-2   1.388556172845421E2  
 6.116350000000000E7    -6.941866480162739E-2   1.388216174604778E2  
 6.116500000000000E7    -7.033058331510858E-2   1.387886177811245E2  
 6.116650000000000E7    -7.036118534207922E-2   1.387549502300929E2  
 6.116800000000000E7    -7.004555866055531E-2   1.387183956092881E2  
 6.116950000000000E7    -7.089817716994751E-2   1.386841757069742E2  
 6.117100000000000E7    -7.077230467871000E-2   1.386519562427010E2  
 6.117250000000000E7    -7.040027120016032E-2   1.386158112477078E2  
 6.117400000000000E7    -7.082330951537354E-2   1.385808624303027E2  
 6.117550000000000E7    -7.051829000406555E-2   1.385492605427870E2  
 6.117700000000000E7    -7.072117311561922E-2   1.385135432628145E2  
 6.117850000000000E7    -7.081470203198863E-2   1.384788526045752E2  
 6.118000000000000E7    -7.122168459283054E-2   1.384450796355883E2  
 6.118150000000000E7    -7.071320918815147E-2   1.384035524801805E2  
 6.118300000000000E7    -7.165223837522416E-2   1.383702661845782E2  
 6.118450000000000E7    -7.173553280792916E-2   1.383321008339197E2  
 6.118600000000000E7    -7.199423415581292E-2   1.382998270899126E2  
 6.118750000000000E7    -7.169044869205971E-2   1.382589072577464E2  
 6.118900000000000E7    -7.197794625823829E-2   1.382316977728068E2  
 6.119050000000000E7    -7.097343485928269E-2   1.381891429008367E2  
 6.119200000000000E7    -7.216326095916054E-2   1.381596156259472E2  
 6.119350000000000E7    -7.218129383995681E-2   1.381238154482579E2  
 6.119500000000000E7    -7.262682896572753E-2   1.380879441236247E2  
 6.119650000000000E7    -7.202464081113340E-2   1.380531209951649E2  
 6.119800000000000E7    -7.266623150352053E-2   1.380105528465032E2  
 6.119950000000000E7    -7.343529474683691E-2   1.379747127819518E2  
 6.120100000000000E7    -7.321740100963195E-2   1.379308130855416E2  
 6.120250000000000E7    -7.327610076949873E-2   1.378971945210720E2  
 6.120400000000000E7    -7.423549349248640E-2   1.378638395645122E2  
 6.120550000000000E7    -7.444903547755126E-2   1.378231069362165E2  
 6.120700000000000E7    -7.394337376803151E-2   1.377911236745186E2  
 6.120850000000000E7    -7.368760397450090E-2   1.377537603635986E2  
 6.121000000000000E7    -7.351082914154013E-2   1.377121462874142E2  
 6.121150000000000E7    -7.401412455216715E-2   1.376735435869664E2  
 6.121300000000000E7    -7.476355940151135E-2   1.376353341948757E2  
 6.121450000000000E7    -7.539733256696644E-2   1.376051485505345E2  
 6.121600000000000E7    -7.507720243098974E-2   1.375632823042760E2  
 6.121750000000000E7    -7.534955347993697E-2   1.375314504478895E2  
 6.121900000000000E7    -7.535524020188668E-2   1.374912921901409E2  
 6.122050000000000E7    -7.501981569240554E-2   1.374513825468852E2  
 6.122200000000000E7    -7.579730693665493E-2   1.374199981079993E2  
 6.122350000000000E7    -7.580662682907183E-2   1.373833626844919E2  
 6.122500000000000E7    -7.603491726140685E-2   1.373413040459191E2  
 6.122650000000000E7    -7.587719677169637E-2   1.373047471661611E2  
 6.122800000000000E7    -7.653162948931781E-2   1.372696701385561E2  
 6.122950000000000E7    -7.704878715263444E-2   1.372300036423772E2  
 6.123100000000000E7    -7.743944600338397E-2   1.371908452978053E2  
 6.123250000000000E7    -7.729603108237111E-2   1.371528491818651E2  
 6.123400000000000E7    -7.692669911591497E-2   1.371179501084174E2  
 6.123550000000000E7    -7.664316819382087E-2   1.370764858760817E2  
 6.123700000000000E7    -7.775200054756756E-2   1.370375119654985E2  
 6.123850000000000E7    -7.694286369397937E-2   1.370001158342605E2  
 6.124000000000000E7    -7.880314461884148E-2   1.369589762787940E2  
 6.124150000000000E7    -7.837842102167872E-2   1.369209749521811E2  
 6.124300000000000E7    -7.827301750856430E-2   1.368815480554559E2  
 6.124450000000000E7    -7.827124299528696E-2   1.368409455183382E2  
 6.124600000000000E7    -7.852027759600795E-2   1.368037968963116E2  
 6.124750000000000E7    -7.919222579435550E-2   1.367656894359335E2  
 6.124900000000000E7    -7.938027270083017E-2   1.367289434476212E2  
 6.125050000000000E7    -7.957598125737177E-2   1.366927417738263E2  
 6.125200000000000E7    -7.918126026472014E-2   1.366519040830014E2  
 6.125350000000000E7    -7.865794319570439E-2   1.366129826698229E2  
 6.125500000000000E7    -7.895606978983474E-2   1.365718826114103E2  
 6.125650000000000E7    -7.947757179670761E-2   1.365276311394273E2  
 6.125800000000000E7    -8.024730977245666E-2   1.364874575443743E2  
 6.125950000000000E7    -8.090510378223086E-2   1.364536787145754E2  
 6.126100000000000E7    -8.114739757622838E-2   1.364101255488767E2  
 6.126250000000000E7    -8.095729074503358E-2   1.363667002149818E2  
 6.126400000000000E7    -8.076082553824228E-2   1.363258828684611E2  
 6.126550000000000E7    -8.128296291384851E-2   1.362851573123021E2  
 6.126700000000000E7    -8.233449128095025E-2   1.362463394886829E2  
 6.126850000000000E7    -8.250219653087441E-2   1.362033811715886E2  
 6.127000000000000E7    -8.279930302815954E-2   1.361653160991724E2  
 6.127150000000000E7    -8.267235054627031E-2   1.361239971518303E2  
 6.127300000000000E7    -8.394821216757126E-2   1.360826866177856E2  
 6.127450000000000E7    -8.282498485748126E-2   1.360414353045527E2  
 6.127600000000000E7    -8.255373583598856E-2   1.360006395369080E2  
 6.127750000000000E7    -8.309431309148077E-2   1.359596756402628E2  
 6.127900000000000E7    -8.413039142473314E-2   1.359191229059415E2  
 6.128050000000000E7    -8.442572382639070E-2   1.358750718240455E2  
 6.128200000000000E7    -8.364469210687817E-2   1.358323100807282E2  
 6.128350000000000E7    -8.429458732893370E-2   1.357908205328295E2  
 6.128500000000000E7    -8.425689574197628E-2   1.357455250812841E2  
 6.128650000000000E7    -8.497749413840801E-2   1.357111563137758E2  
 6.128800000000000E7    -8.545745989017746E-2   1.356660712942596E2  
 6.128950000000000E7    -8.639044248169994E-2   1.356273265326172E2  
 6.129100000000000E7    -8.632275031582355E-2   1.355880181033104E2  
 6.129250000000000E7    -8.662010988477933E-2   1.355398990279696E2  
 6.129400000000000E7    -8.692050943493485E-2   1.355050221510975E2  
 6.129550000000000E7    -8.668108470659548E-2   1.354563205161757E2  
 6.129700000000000E7    -8.768093561490206E-2   1.354105805042774E2  
 6.129850000000000E7    -8.873633834901551E-2   1.353618049045711E2  
 6.130000000000000E7    -8.911409700479012E-2   1.353202565024308E2  
 6.130150000000000E7    -8.922710989096250E-2   1.352743923526713E2  
 6.130300000000000E7    -8.931023192161047E-2   1.352265428301778E2  
 6.130450000000000E7    -8.874697356446110E-2   1.351804577560777E2  
 6.130600000000000E7    -8.947026021847414E-2   1.351377876266955E2  
 6.130750000000000E7    -8.955677689257559E-2   1.351003223696045E2  
 6.130900000000000E7    -8.991828983563248E-2   1.350594278059232E2  
 6.131050000000000E7    -9.048510117991362E-2   1.350093505573027E2  
 6.131200000000000E7    -9.083854184557443E-2   1.349716641196120E2  
 6.131350000000000E7    -9.138761207903176E-2   1.349221543549888E2  
 6.131500000000000E7    -9.083332618441391E-2   1.348771517908518E2  
 6.131650000000000E7    -9.216593755944512E-2   1.348319939574946E2  
 6.131800000000000E7    -9.211822360961412E-2   1.347846082468753E2  
 6.131950000000000E7    -9.295499065733300E-2   1.347385581404762E2  
 6.132100000000000E7    -9.327308928795047E-2   1.346931080640282E2  
 6.132250000000000E7    -9.331481597893010E-2   1.346532115494223E2  
 6.132400000000000E7    -9.374659413559627E-2   1.346038158936605E2  
 6.132550000000000E7    -9.405972020394909E-2   1.345597136458466E2  
 6.132700000000000E7    -9.385410594756664E-2   1.345116382679383E2  
 6.132850000000000E7    -9.455351455812922E-2   1.344627691877362E2  
 6.133000000000000E7    -9.437485396316130E-2   1.344224347672690E2  
 6.133150000000000E7    -9.554587670981515E-2   1.343731521242054E2  
 6.133300000000000E7    -9.467187068693085E-2   1.343202013410194E2  
 6.133450000000000E7    -9.481653416139854E-2   1.342765111395229E2  
 6.133600000000000E7    -9.505172902622500E-2   1.342237965702769E2  
 6.133750000000000E7    -9.605817675171088E-2   1.341768924062587E2  
 6.133900000000000E7    -9.710449690486291E-2   1.341314430804094E2  
 6.134050000000000E7    -9.724566901703541E-2   1.340855035724208E2  
 6.134200000000000E7    -9.743646201075677E-2   1.340326078002776E2  
 6.134350000000000E7    -9.873522708548971E-2   1.339859080779677E2  
 6.134500000000000E7    -9.821246989708644E-2   1.339375670651533E2  
 6.134650000000000E7    -9.888080132519199E-2   1.338863377861862E2  
 6.134800000000000E7    -9.841586926738816E-2   1.338409631334898E2  
 6.134950000000000E7    -9.924210675019436E-2   1.337896868450702E2  
 6.135100000000000E7    -9.958435319239997E-2   1.337399458866289E2  
 6.135250000000000E7    -1.011814757121142E-1   1.336872273272687E2  
 6.135400000000000E7    -1.015475779562691E-1   1.336418547796725E2  
 6.135550000000000E7    -1.026786953919486E-1   1.335840933406853E2  
 6.135700000000000E7    -1.033608144322782E-1   1.335355513545100E2  
 6.135850000000000E7    -1.029210292850449E-1   1.334871326024809E2  
 6.136000000000000E7    -1.034180769228174E-1   1.334404829625923E2  
 6.136150000000000E7    -1.039461349911918E-1   1.333866186195480E2  
 6.136300000000000E7    -1.042981740651671E-1   1.333335674058555E2  
 6.136450000000000E7    -1.050240342212635E-1   1.332797370785267E2  
 6.136600000000000E7    -1.047258515037846E-1   1.332327982376677E2  
 6.136750000000000E7    -1.062531842995022E-1   1.331782135487713E2  
 6.136900000000000E7    -1.067204271131877E-1   1.331203907192407E2  
 6.137050000000000E7    -1.067067055513188E-1   1.330741514044588E2  
 6.137200000000000E7    -1.074766616740352E-1   1.330154815970909E2  
 6.137350000000000E7    -1.079677322465090E-1   1.329631526902967E2  
 6.137500000000000E7    -1.084621043209628E-1   1.329028754711051E2  
 6.137650000000000E7    -1.090227269072875E-1   1.328497767752111E2  
 6.137800000000000E7    -1.105686055731030E-1   1.327976577966868E2  
 6.137950000000000E7    -1.107076449083246E-1   1.327433822641872E2  
 6.138100000000000E7    -1.113202734531487E-1   1.326885705332617E2  
 6.138250000000000E7    -1.120878507669018E-1   1.326334423128970E2  
 6.138400000000000E7    -1.127068743298569E-1   1.325804640693318E2  
 6.138550000000000E7    -1.130253879888413E-1   1.325239303174496E2  
 6.138700000000000E7    -1.136128684654865E-1   1.324692878928649E2  
 6.138850000000000E7    -1.135838404760880E-1   1.324103424166185E2  
 6.139000000000000E7    -1.146720971761378E-1   1.323558865762665E2  
 6.139150000000000E7    -1.150917001793807E-1   1.322994619329376E2  
 6.139300000000000E7    -1.162371879987978E-1   1.322419092080736E2  
 6.139450000000000E7    -1.164599852655990E-1   1.321831186490799E2  
 6.139600000000000E7    -1.177823426829268E-1   1.321284845308003E2  
 6.139750000000000E7    -1.191099935691461E-1   1.320692796796856E2  
 6.139900000000000E7    -1.193289330215991E-1   1.320092784908444E2  
 6.140050000000000E7    -1.197695807235299E-1   1.319487272011804E2  
 6.140200000000000E7    -1.207027151360022E-1   1.318928574394236E2  
 6.140350000000000E7    -1.212760973959045E-1   1.318318922556476E2  
 6.140500000000000E7    -1.222695042074683E-1   1.317665694532186E2  
 6.140650000000000E7    -1.227986902847066E-1   1.317092814980978E2  
 6.140800000000000E7    -1.226755073778870E-1   1.316533831929015E2  
 6.140950000000000E7    -1.237599138227389E-1   1.315933092835948E2  
 6.141100000000000E7    -1.246833488177409E-1   1.315268925874723E2  
 6.141250000000000E7    -1.250306165457628E-1   1.314668064297547E2  
 6.141400000000000E7    -1.265097100353271E-1   1.314022949088301E2  
 6.141550000000000E7    -1.275018900069351E-1   1.313418668517838E2  
 6.141700000000000E7    -1.271112192773505E-1   1.312836639312045E2  
 6.141850000000000E7    -1.284103744745474E-1   1.312171669399003E2  
 6.142000000000000E7    -1.292006179529670E-1   1.311512492134726E2  
 6.142150000000000E7    -1.298741988212987E-1   1.310911212321321E2  
 6.142300000000000E7    -1.312559615447387E-1   1.310235360904019E2  
