#  HZ   S   DB   R     50.00 
! Rohde & Schwarz Vector Network Analyzer 
! Rohde-Schwarz,ZNB8-4Port,1311601044102961,2.82
! Created: UTC 2/8/2022, 8:34:43 AM
! freq[Hz]                db:S11                  ang:S11                 db:S12                  ang:S12                 db:S13                  ang:S13
!                         db:S21                  ang:S21                 db:S22                  ang:S22                 db:S23                  ang:S23
!                         db:S31                  ang:S31                 db:S32                  ang:S32                 db:S33                  ang:S33
! 
 6.120000000000000E7    -1.161843665334094E-1    1.191600414289611E1    -7.552711211246277E1     7.205129501607760E1    -8.355212983261423E1    -9.629773007379677E1
                        -7.418394043345055E1     7.592633152205599E1    -5.071745849674791E-3   -4.708366551098600E1    -9.664675683433987E1     9.236122008899986E1
                        -8.308567103903974E1    -1.143831031129850E2    -9.848540886705979E1     5.869138699759103E1    -1.582976401780421E-2   -3.416506925362621E1

 6.120100000000000E7    -1.181245957981242E-1    1.188357252974782E1    -7.429316302891211E1     6.969036241482560E1    -8.307573753076055E1    -1.109183273243559E2
                        -7.421943004869186E1     7.169385539936955E1    -9.727491338940648E-3   -4.708652887617472E1    -9.902850816146339E1     1.648835856334974E2
                        -8.323771319308096E1    -1.057167323816647E2    -9.901943478766674E1    -4.738393381137349E1    -1.679885250459063E-2   -3.416603927955193E1

 6.120200000000000E7    -1.170841938038510E-1    1.185702265033285E1    -7.388453413639087E1     6.896896426115173E1    -8.359209413004328E1    -1.120948325088044E2
                        -7.445262636051220E1     7.208390480109999E1    -5.641062356310286E-3   -4.709365604334802E1    -9.982324112555249E1     5.500855631838770
                        -8.444779136316330E1    -1.110789931482087E2    -1.054139918155312E2     1.731377459441560E2    -1.688018596766210E-2   -3.416576515207544E1

 6.120300000000000E7    -1.170357197497512E-1    1.183502675506175E1    -7.436923903955329E1     7.325045266424405E1    -8.326148659007666E1    -9.985459438731910E1
                        -7.459336325413690E1     6.360867326461742E1    -8.469506973706164E-3   -4.709638123766347E1    -1.003702461909569E2     1.397744160584647E2
                        -8.299373810497697E1    -1.150956852939296E2    -1.037371530253394E2    -1.014301305723719E2    -1.776779950639476E-2   -3.418450454683431E1

 6.120400000000000E7    -1.152576272657061E-1    1.181676952072399E1    -7.353214476863096E1     7.256193246848656E1    -8.237953841276733E1    -1.063485391598450E2
                        -7.364032888240830E1     7.163062946113450E1    -1.006663474230287E-2   -4.708419653003764E1    -9.438272876116218E1     4.380926141687228E1
                        -8.292907532681717E1    -9.918891221659983E1    -1.015726870754130E2    -1.490623380370640E2    -1.628256275309420E-2   -3.417013304940489E1

 6.120500000000000E7    -1.183834636369031E-1    1.179097098788551E1    -7.404473233831077E1     7.444571691921037E1    -8.241732567917354E1    -1.023793479225809E2
                        -7.362795408285852E1     7.075562789080769E1    -7.092520809179645E-3   -4.709934030110746E1    -9.834012379523679E1    -1.669921900584641E1
                        -8.423998241264184E1    -1.200836096166331E2    -9.246541644659445E1     3.784053946584741E1    -1.519169006619864E-2   -3.417481347504126E1

 6.120600000000000E7    -1.180671768156791E-1    1.177120773552852E1    -7.316668153485853E1     7.192435623607437E1    -8.178637786810953E1    -1.037135150030347E2
                        -7.403957741816757E1     7.239042236972067E1    -1.096696892308895E-2   -4.708589369844389E1    -9.972172485638544E1     3.673636994869856E1
                        -8.320361224223876E1    -1.092113702586556E2    -9.808369525526794E1     6.197290739574375E1    -1.326611354184128E-2   -3.416224485473278E1

 6.120700000000000E7    -1.184201040706668E-1    1.173570579263332E1    -7.326452251318064E1     6.826354271713728E1    -8.364599207038037E1    -1.168857033961994E2
                        -7.342974111895973E1     6.789486980507409E1    -7.398551572534152E-3   -4.710531882701672E1    -1.002771489181256E2     6.180623483088476E1
                        -8.461484863303437E1    -1.084298374375746E2    -9.594126712362915E1    -5.870375113469846E1    -1.293547172493625E-2   -3.418209750812842E1

 6.120800000000000E7    -1.176096232450506E-1    1.171653340747585E1    -7.361769796744135E1     7.040142649410912E1    -8.339946646832553E1    -1.074366283319440E2
                        -7.395997189688853E1     7.282051492484501E1    -9.498870710807086E-3   -4.710545576920050E1    -9.326313749941258E1     7.868696280371404E1
                        -8.218297055687185E1    -1.085497018152806E2    -9.626542754545754E1    -1.723864141248172E2    -1.788078326509194E-2   -3.418002251389758E1

 6.120900000000000E7    -1.179693299164051E-1    1.167947029148080E1    -7.397831662159112E1     6.846768548573402E1    -8.276539121725746E1    -1.102550391563944E2
                        -7.327172235039969E1     7.357520739391914E1    -3.508227411056027E-3   -4.708929159923483E1    -9.570885044877406E1    -2.789809093146612E1
                        -8.505460658224131E1    -1.169098595584477E2    -9.121453407648616E1     3.066920342679931E1    -1.719233520395864E-2   -3.417323842387870E1

 6.121000000000000E7    -1.183195637434148E-1    1.165804403395976E1    -7.360893374115642E1     7.203179483156161E1    -8.346093749145922E1    -1.135110829825201E2
                        -7.383295517417312E1     7.453882688579517E1    -7.233100918049204E-3   -4.709422161525652E1    -1.129650707864150E2     7.263522224073924E1
                        -8.207949049711209E1    -1.058949729390007E2    -1.114984121173060E2    -7.717381775912212E1    -1.553540765925183E-2   -3.417435185701275E1

 6.121100000000000E7    -1.174216862114636E-1    1.163537690269555E1    -7.327749903045640E1     7.336317451323656E1    -8.113568528857647E1    -1.062914189197472E2
                        -7.361210840171208E1     7.140582634399863E1    -7.232580971358661E-3   -4.709673850898857E1    -9.123916362034636E1     1.356399366430965E1
                        -8.324915102507262E1    -1.064635856918780E2    -1.009165308122914E2     3.377359075912313E1    -1.342966768973457E-2   -3.416638371839752E1

 6.121200000000000E7    -1.155592254898995E-1    1.161024752514162E1    -7.337309404877630E1     7.236213898948991E1    -8.262322262325044E1    -1.054359962332803E2
                        -7.308694720356652E1     7.063576096263655E1    -7.476352719175505E-3   -4.709256191231393E1    -9.389030291157782E1     7.984148907115576E1
                        -8.458444096092464E1    -9.799136020659731E1    -9.191315595416941E1    -1.357935023695023E1    -1.598234702045475E-2   -3.418553091515019E1

 6.121300000000000E7    -1.195460376011010E-1    1.158898845065980E1    -7.383071318666632E1     6.510251501316790E1    -8.372638530811996E1    -1.096089517995409E2
                        -7.351885511997989E1     6.795289239656050E1    -5.769389505390602E-3   -4.708334775416204E1    -9.935603330609257E1     1.678975770234192
                        -8.390082945544991E1    -1.092612037961626E2    -9.529026795778380E1     1.320954114506588E1    -1.583099340267776E-2   -3.418998134754006E1

 6.121400000000000E7    -1.174970666585441E-1    1.156974783658790E1    -7.370711250134538E1     7.428557372772978E1    -8.177013696574309E1    -1.113621552413864E2
                        -7.360194021153505E1     6.762658877265812E1    -8.882972811697809E-3   -4.710994002537257E1    -1.007086324364429E2     1.539950786467807E2
                        -8.289782791325115E1    -1.217529795993333E2    -1.003749973107233E2     6.522854488760906E1    -1.519187552176127E-2   -3.416369308037201E1

 6.121500000000000E7    -1.188013515152831E-1    1.153514638787070E1    -7.416768897884670E1     6.875139265207670E1    -8.183693210677234E1    -1.136950885462205E2
                        -7.407890225622866E1     6.949886952316643E1    -9.625877549859784E-3   -4.710462921282979E1    -1.039501111809659E2     1.380619329415266E2
                        -8.382961372836918E1    -1.059351382231710E2    -9.872946653238935E1     1.760951388703613E2    -1.402624683733893E-2   -3.419072556133577E1

 6.121600000000000E7    -1.167995153552357E-1    1.149381591705222E1    -7.404935254431658E1     6.881828769724010E1    -8.305253810971040E1    -1.130257125091883E2
                        -7.416721030726120E1     7.652627396922938E1    -9.214016344803400E-3   -4.710288070066076E1    -1.023325981165959E2     6.503431371452858E1
                        -8.227417355459869E1    -1.020641098199617E2    -9.947242814933516E1     1.396153677513082E2    -1.520857552562331E-2   -3.418272706465677E1

 6.121700000000000E7    -1.155718882026233E-1    1.147943489707110E1    -7.444079760795125E1     7.377888667660362E1    -8.325449673701895E1    -1.081439405064178E2
                        -7.441379810800095E1     7.395463906286473E1    -8.058202377209960E-3   -4.709921913289362E1    -1.001124755463287E2    -4.972542526280071E1
                        -8.302364877662440E1    -9.710891809766997E1    -1.011275686276746E2    -1.680827421327467E2    -1.502828422439653E-2   -3.418352825618079E1

 6.121800000000000E7    -1.175724943584582E-1    1.145868383495303E1    -7.323314214900339E1     6.746041978427556E1    -8.298266990761275E1    -1.034963674727316E2
                        -7.387274487207387E1     6.875099789246811E1    -7.102053581774696E-3   -4.709951403734937E1    -1.034650437823892E2    -5.843757741746546E1
                        -8.383193514247711E1    -1.156592619150703E2    -1.041091436072557E2     3.552166917782054E1    -1.571173372666438E-2   -3.418439138459606E1

 6.121900000000000E7    -1.192551713536900E-1    1.143182842644856E1    -7.435734507971770E1     6.545294392415727E1    -8.157111243675912E1    -1.120523843429702E2
                        -7.373159533861917E1     7.123099282117934E1    -9.063566244121525E-3   -4.707562246344526E1    -9.585433185718480E1    -1.387474279458980E2
                        -8.258878078114002E1    -9.259569811690353E1    -9.835124729412459E1    -1.452124642653244E2    -1.622870452442692E-2   -3.418243316084100E1

 6.122000000000000E7    -1.194004074535142E-1    1.140636719740014E1    -7.346889182280425E1     6.871717361963694E1    -8.116698767787960E1    -1.079676752205243E2
                        -7.408481387978162E1     7.077457371489382E1    -8.826230914458588E-3   -4.710820868339228E1    -9.977885385154723E1     7.161474262552656
                        -8.208118685284478E1    -1.126794181871732E2    -9.558946748867029E1     2.726366621395192E1    -1.562376114723181E-2   -3.418229145922166E1

 6.122100000000000E7    -1.175177105023367E-1    1.136628026382448E1    -7.395700665942765E1     7.248264026532037E1    -8.125460134368848E1    -1.100882395178280E2
                        -7.371525461935508E1     7.426853814352423E1    -1.117020337965241E-2   -4.709478834709431E1    -1.112473218921933E2     1.510410805262709E2
                        -8.388353814582786E1    -1.017604352961485E2    -1.022470121501971E2     4.852272623210057E1    -1.306067348027291E-2   -3.417798895993302E1

 6.122200000000000E7    -1.173471017606426E-1    1.134514793833153E1    -7.351814184662405E1     7.250884493153760E1    -8.299372134794317E1    -1.074782098711296E2
                        -7.398442437575285E1     6.702649371297910E1    -8.829927281729572E-3   -4.712286321755062E1    -1.054783368769272E2    -4.600987931778599E1
                        -8.079396015155427E1    -1.094659366936997E2    -9.780719399092271E1    -7.733261300899294E1    -1.763139192560707E-2   -3.417733826407741E1

 6.122300000000000E7    -1.172610334705382E-1    1.133492142619343E1    -7.373605391821270E1     7.010049868346303E1    -8.229566220782617E1    -9.950387032909396E1
                        -7.339113571873396E1     6.651645608220983E1    -7.996248652866553E-3   -4.709721863137275E1    -1.030441553967916E2     1.477252603405174E2
                        -8.158373398613765E1    -1.069043064474001E2    -1.022226158191963E2    -1.528883107914954E2    -1.481637628119427E-2   -3.418280657683096E1

 6.122400000000000E7    -1.187708355568199E-1    1.129751644386821E1    -7.331148710636361E1     7.464901739020451E1    -8.212900387872958E1    -1.135237305742598E2
                        -7.397178341730759E1     6.961674359119769E1    -1.026884839034689E-2   -4.708258941168307E1    -9.909757922902239E1     7.948175723557509E1
                        -8.207544945406136E1    -9.817669591672390E1    -9.886093829311618E1     2.243456013403768E1    -1.568245758006379E-2   -3.418168121091777E1

 6.122500000000000E7    -1.191137890757057E-1    1.125818129152563E1    -7.344933555392115E1     6.841326865461190E1    -8.412094794832647E1    -9.610467532001812E1
                        -7.374288259928773E1     6.999991478843231E1    -7.359316374078207E-3   -4.711411682754550E1    -9.184497990629488E1     5.944466691209201E1
                        -8.178691544447310E1    -1.179982730410316E2    -9.870352729981914E1     2.773120817442743E1    -1.435032786879395E-2   -3.418122800554517E1

 6.122600000000000E7    -1.191811355209377E-1    1.122457584143463E1    -7.410246167926742E1     7.218845897730387E1    -8.162203326759027E1    -1.118014393372904E2
                        -7.336292827043653E1     7.184993931565838E1    -1.133574835188557E-2   -4.711955204656886E1    -9.675732780588359E1    -1.683268166820814E2
                        -8.192315511756861E1    -1.195756500578056E2    -9.358384812992085E1     1.165188311887501E2    -1.652644575530320E-2   -3.418332293542454E1

 6.122700000000000E7    -1.204115181086509E-1    1.120942934822105E1    -7.308101515203069E1     7.158865992187903E1    -8.116914630264895E1    -1.078003256198802E2
                        -7.401433919847125E1     7.140474242575419E1    -9.254324632307021E-3   -4.711060174659596E1    -1.004425238832369E2     8.985126399352186
                        -8.140454294057903E1    -1.134043437315877E2    -1.034245250117654E2    -7.331686873128878E1    -1.615965377039637E-2   -3.418862567276666E1

 6.122800000000000E7    -1.217076845516632E-1    1.118421150229740E1    -7.340304406853313E1     6.721325661636348E1    -8.031921399004696E1    -1.108626706942778E2
                        -7.399626843231751E1     6.950905942558941E1    -5.835231390638601E-3   -4.710500923087727E1    -9.486270336033222E1     6.562287478187636E1
                        -8.410991457744224E1    -9.971315635955531E1    -1.120122525345485E2     3.947303985652833      -1.686336890560247E-2   -3.420279543165238E1

 6.122900000000000E7    -1.198802358744185E-1    1.115677810747200E1    -7.294646035138672E1     7.284147078236731E1    -8.276549657349561E1    -1.033529816904476E2
                        -7.371075874535381E1     7.010047977942610E1    -6.807548130913932E-3   -4.710225863797522E1    -1.022599061208500E2    -4.884010324610362E1
                        -8.210939504146171E1    -1.048391462020904E2    -1.015882238864441E2    -1.775500613632813E2    -1.615469961041667E-2   -3.417892254042037E1

 6.123000000000000E7    -1.183164288536234E-1    1.112809541093449E1    -7.343725079805230E1     7.172120282987933E1    -8.023480872193034E1    -1.093020754699475E2
                        -7.401609225568150E1     6.997300703268633E1    -8.608136718949212E-3   -4.710650132506054E1    -9.942277209161489E1     5.177639760325459E1
                        -8.293448806169994E1    -1.000221138368391E2    -9.134696987282595E1    -5.830871619898111E1    -1.689496998348533E-2   -3.418131859549186E1

 6.123100000000000E7    -1.176901551250266E-1    1.110647101622821E1    -7.320236369580681E1     7.424849596618215E1    -8.231583692032885E1    -1.088120017726806E2
                        -7.361919094096199E1     7.354997764917032E1    -5.559491298405150E-3   -4.711471887370961E1    -1.050960808199716E2    -4.809654836394416E1
                        -8.190643870489612E1    -1.029376130824004E2    -9.525189572831087E1     1.389873404731171E2    -1.575641546138477E-2   -3.417504885923692E1

 6.123200000000000E7    -1.192882775866229E-1    1.107855656563572E1    -7.355965215180925E1     6.972187030604390E1    -8.158792035024085E1    -1.026521490708907E2
                        -7.390685461517242E1     6.993714417522307E1    -6.354928638509324E-3   -4.710475133184631E1    -9.526738269330336E1     9.018820768607733E1
                        -8.220270748817418E1    -9.623583233132963E1    -9.544988581651248E1    -1.078214620454039E1    -1.552622511337586E-2   -3.419178780723203E1

 6.123300000000000E7    -1.192985539778924E-1    1.106283201325306E1    -7.347059595436893E1     7.120572269880576E1    -8.038959952024412E1    -1.054235339207767E2
                        -7.331766319086577E1     6.687034783356168E1    -6.845006697286615E-3   -4.710936319143377E1    -9.194662272373972E1     1.327705224364419E1
                        -8.277261646715316E1    -1.141342135653260E2    -1.071921777298847E2    -1.486525987757508E2    -1.514504323633951E-2   -3.417640034795983E1

 6.123400000000000E7    -1.180665785534049E-1    1.103092849572879E1    -7.329429952727233E1     6.917776589482290E1    -8.071398067808386E1    -1.014157294013490E2
                        -7.422486854805204E1     7.192752219268080E1    -6.177381237549221E-3   -4.711811588692487E1    -1.040202386363783E2     1.131799282420726E2
                        -8.043745927066723E1    -1.057101742667153E2    -9.937166414070924E1     9.223772127812791E1    -1.662129328766698E-2   -3.417581429861607E1

 6.123500000000000E7    -1.190550219879427E-1    1.099866715061276E1    -7.365359791041732E1     7.064585992698956E1    -8.279700789126011E1    -1.167754049425532E2
                        -7.406865357818218E1     7.080612338226106E1    -7.155064524067546E-3   -4.708500243955392E1    -1.031417827415734E2    -8.636111668879279E1
                        -8.211617582068938E1    -1.059812757679285E2    -1.154812147176869E2    -5.939052009770310E1    -1.573567921947678E-2   -3.419118308401654E1

 6.123600000000000E7    -1.203913585554220E-1    1.097693877693567E1    -7.394357062509161E1     7.878425385830722E1    -8.168461030253825E1    -1.008921656401385E2
                        -7.342563666832130E1     7.174855933900165E1    -6.803589715325483E-3   -4.714200625778150E1    -1.192069018666673E2    -1.317633424396690
                        -8.146570049374390E1    -1.040957588401309E2    -9.840961644196946E1     4.317007739744128E1    -1.648050980612803E-2   -3.420225796726127E1

 6.123700000000000E7    -1.190868392866472E-1    1.095618817060023E1    -7.310024590359484E1     6.735100780175679E1    -8.265228168910880E1    -1.217387077344697E2
                        -7.307805138340470E1     7.379502500394965E1    -7.231480520475381E-3   -4.711510664296487E1    -1.005674414214995E2     6.846930921085890E1
                        -8.328237399335188E1    -1.056791195632717E2    -9.388093166585307E1     8.675713295637807E1    -1.638960448407438E-2   -3.420162528828523E1

 6.123800000000000E7    -1.210717585565482E-1    1.093457961306823E1    -7.383174345213789E1     6.949889792724598E1    -8.165952190056007E1    -1.009709270525301E2
                        -7.354791955816043E1     7.240871104077120E1    -9.406099436842674E-3   -4.710317458735156E1    -1.179174197430440E2    -2.921938921120832E1
                        -7.969563529354612E1    -1.039693872242625E2    -1.050492310917809E2    -1.668547633407241E2    -1.645614777608067E-2   -3.418798663598670E1

