#  HZ   S   DB   R     50.00 
! Rohde & Schwarz ZVB8 2Ports - Version 3.70 - 1145.1010k08 SN: 100925
! Date: 2021-11-08 12:46:15
! Measurement: S11 
! 
 6.000000000000000E7    -1.368378337361369E-1   1.581005163423282E2  
 6.000200000000000E7    -1.375225288182767E-1   1.580697354351802E2  
 6.000400000000000E7    -1.371767876868040E-1   1.580686321084002E2  
 6.000600000000000E7    -1.373225710426924E-1   1.580341769973392E2  
 6.000800000000000E7    -1.363611238340482E-1   1.579885700171312E2  
 6.001000000000000E7    -1.340870233648836E-1   1.579721740217456E2  
 6.001200000000000E7    -1.394075985788718E-1   1.579271095588367E2  
 6.001400000000000E7    -1.388524648678323E-1   1.578871418933571E2  
 6.001600000000000E7    -1.387024539266138E-1   1.578657543196566E2  
 6.001800000000000E7    -1.360214764884688E-1   1.578223694660488E2  
 6.002000000000000E7    -1.337073502378949E-1   1.577895254928987E2  
 6.002200000000000E7    -1.358851917051165E-1   1.577643899317064E2  
 6.002400000000000E7    -1.378933116985355E-1   1.577193413176177E2  
 6.002600000000000E7    -1.360663943154372E-1   1.576865699991844E2  
 6.002800000000000E7    -1.387087438340515E-1   1.576656911898562E2  
 6.003000000000000E7    -1.341867096209702E-1   1.576189414185315E2  
 6.003200000000000E7    -1.335435331193063E-1   1.575869468723586E2  
 6.003400000000000E7    -1.389561360111451E-1   1.575759324743944E2  
 6.003600000000000E7    -1.385912716395482E-1   1.575485568440021E2  
 6.003800000000000E7    -1.315104371591649E-1   1.575009927553398E2  
 6.004000000000000E7    -1.315874757894835E-1   1.575016397995410E2  
 6.004200000000000E7    -1.377654254881354E-1   1.574252989784343E2  
 6.004400000000000E7    -1.357594458830198E-1   1.574156332876947E2  
 6.004600000000000E7    -1.365668268171132E-1   1.573783230548530E2  
 6.004800000000000E7    -1.362420437085787E-1   1.573458765093619E2  
 6.005000000000000E7    -1.355939604130367E-1   1.572997804868545E2  
 6.005200000000000E7    -1.372248447764282E-1   1.572474042295992E2  
 6.005400000000000E7    -1.368510035008841E-1   1.572305863219297E2  
 6.005600000000000E7    -1.362191690348213E-1   1.572206948228264E2  
 6.005800000000000E7    -1.398868030528555E-1   1.571583950123042E2  
 6.006000000000000E7    -1.380813829471480E-1   1.571700557317827E2  
 6.006200000000000E7    -1.385817227515462E-1   1.571070926562738E2  
 6.006400000000000E7    -1.370900818339977E-1   1.570922259161142E2  
 6.006600000000000E7    -1.342124968522904E-1   1.570468755581302E2  
 6.006800000000000E7    -1.384259219599365E-1   1.570394503113088E2  
 6.007000000000000E7    -1.406188849173374E-1   1.569970387709951E2  
 6.007200000000000E7    -1.348569744025442E-1   1.569610620612706E2  
 6.007400000000000E7    -1.396285645581231E-1   1.568959136291195E2  
 6.007600000000000E7    -1.380536291007435E-1   1.568732370307989E2  
 6.007800000000000E7    -1.386413368251376E-1   1.568545625069403E2  
 6.008000000000000E7    -1.360599165309705E-1   1.568120174800914E2  
 6.008200000000000E7    -1.373349229795431E-1   1.567765102860930E2  
 6.008400000000000E7    -1.370956625702378E-1   1.567530554328338E2  
 6.008600000000000E7    -1.370699338825732E-1   1.567441355484489E2  
 6.008800000000000E7    -1.370570294528554E-1   1.566871257186160E2  
 6.009000000000000E7    -1.343061659791981E-1   1.566371785178972E2  
 6.009200000000000E7    -1.385054982168362E-1   1.566182251482118E2  
 6.009400000000000E7    -1.410638026509398E-1   1.565926754859980E2  
 6.009600000000000E7    -1.383663421551482E-1   1.565444796988524E2  
 6.009800000000000E7    -1.381224579464165E-1   1.565118169044026E2  
 6.010000000000000E7    -1.383577913376792E-1   1.564857321912932E2  
 6.010200000000000E7    -1.358227714417866E-1   1.564633573030017E2  
 6.010400000000000E7    -1.413389781142567E-1   1.564400536427258E2  
 6.010600000000000E7    -1.369514186467393E-1   1.563830416094501E2  
 6.010800000000000E7    -1.396822854279371E-1   1.563842600784118E2  
 6.011000000000000E7    -1.372909630242889E-1   1.563241642855441E2  
 6.011200000000000E7    -1.341758100206112E-1   1.562977217320504E2  
 6.011400000000000E7    -1.366939266204807E-1   1.562687376595454E2  
 6.011600000000000E7    -1.374976744040616E-1   1.562249019891549E2  
 6.011800000000000E7    -1.370133465314881E-1   1.562072862102043E2  
 6.012000000000000E7    -1.388597927563145E-1   1.561816404455783E2  
 6.012200000000000E7    -1.387201561734101E-1   1.561282171634784E2  
 6.012400000000000E7    -1.418193218537683E-1   1.561048057423342E2  
 6.012600000000000E7    -1.408881402625342E-1   1.560893529826261E2  
 6.012800000000000E7    -1.388139368672532E-1   1.560366759880508E2  
 6.013000000000000E7    -1.384475921509428E-1   1.559931038801371E2  
 6.013200000000000E7    -1.410383018665832E-1   1.559806957816352E2  
 6.013400000000000E7    -1.404568746848008E-1   1.559472048759000E2  
 6.013600000000000E7    -1.385627722712389E-1   1.559213222026185E2  
 6.013800000000000E7    -1.401806159890947E-1   1.558884615993998E2  
 6.014000000000000E7    -1.376973951272604E-1   1.558462459894955E2  
 6.014200000000000E7    -1.382557569315874E-1   1.558078398613124E2  
 6.014400000000000E7    -1.412917332031858E-1   1.557762205768490E2  
 6.014600000000000E7    -1.352834815562523E-1   1.557289954567154E2  
 6.014800000000000E7    -1.411319583459106E-1   1.557111129913711E2  
 6.015000000000000E7    -1.362763399402052E-1   1.556732291902408E2  
 6.015200000000000E7    -1.391152387673516E-1   1.556442581104485E2  
 6.015400000000000E7    -1.409297192082973E-1   1.555966207645936E2  
 6.015600000000000E7    -1.392784448050597E-1   1.555889692635329E2  
 6.015800000000000E7    -1.392331106307466E-1   1.555537305123764E2  
 6.016000000000000E7    -1.392050890313475E-1   1.555040140823496E2  
 6.016200000000000E7    -1.369861087002992E-1   1.555021920497794E2  
 6.016400000000000E7    -1.406496099644464E-1   1.554480426258030E2  
 6.016600000000000E7    -1.378574134448556E-1   1.554224394877516E2  
 6.016800000000000E7    -1.391207305085901E-1   1.554054826070305E2  
 6.017000000000000E7    -1.420409309718204E-1   1.553597017001097E2  
 6.017200000000000E7    -1.400788960777500E-1   1.553115458592269E2  
 6.017400000000000E7    -1.401712090716373E-1   1.552735700346175E2  
 6.017600000000000E7    -1.428880957587610E-1   1.552698238505664E2  
 6.017800000000000E7    -1.406053784273773E-1   1.552317951122210E2  
 6.018000000000000E7    -1.402177950045624E-1   1.551802355914173E2  
 6.018200000000000E7    -1.354102031963189E-1   1.551809488099131E2  
 6.018400000000000E7    -1.367012237666819E-1   1.551267789003560E2  
 6.018600000000000E7    -1.408622909613335E-1   1.550857249715279E2  
 6.018800000000000E7    -1.387532237313829E-1   1.550492036053057E2  
 6.019000000000000E7    -1.401270079945884E-1   1.549998156576562E2  
 6.019200000000000E7    -1.360659096516929E-1   1.549905326628649E2  
 6.019400000000000E7    -1.402434151665419E-1   1.549424366215212E2  
 6.019600000000000E7    -1.414311565004889E-1   1.549241402603125E2  
 6.019800000000000E7    -1.374880997267858E-1   1.548756424445257E2  
 6.020000000000000E7    -1.382943426625036E-1   1.548779369806161E2  
 6.020200000000000E7    -1.403649348256752E-1   1.548156371304806E2  
 6.020400000000000E7    -1.424368878690540E-1   1.547735752767240E2  
 6.020600000000000E7    -1.405346209598910E-1   1.547598225304023E2  
 6.020800000000000E7    -1.392975152267180E-1   1.547306634211967E2  
 6.021000000000000E7    -1.411644153453478E-1   1.546759196140266E2  
 6.021200000000000E7    -1.421191278946646E-1   1.546737438728158E2  
 6.021400000000000E7    -1.398245759560132E-1   1.546340551840223E2  
 6.021600000000000E7    -1.411708311625678E-1   1.545977883827970E2  
 6.021800000000000E7    -1.430479398650068E-1   1.545624275428688E2  
 6.022000000000000E7    -1.391726008442387E-1   1.545292033977850E2  
 6.022200000000000E7    -1.418219426461796E-1   1.545033277605884E2  
 6.022400000000000E7    -1.397488055572488E-1   1.544403349127023E2  
 6.022600000000000E7    -1.380585554874969E-1   1.544282697070309E2  
 6.022800000000000E7    -1.400758683647740E-1   1.544246599706953E2  
 6.023000000000000E7    -1.381844619201563E-1   1.543683571931087E2  
 6.023200000000000E7    -1.385158744202883E-1   1.543443192973418E2  
 6.023400000000000E7    -1.391537810443930E-1   1.543051296450920E2  
 6.023600000000000E7    -1.388988209382646E-1   1.542865459828316E2  
 6.023800000000000E7    -1.387586252465379E-1   1.542564491109686E2  
 6.024000000000000E7    -1.419754060103950E-1   1.541952800179044E2  
 6.024200000000000E7    -1.388584564123992E-1   1.541576609720831E2  
 6.024400000000000E7    -1.409405439211186E-1   1.541448966877681E2  
 6.024600000000000E7    -1.402538582840582E-1   1.541062655675756E2  
 6.024800000000000E7    -1.396005024842220E-1   1.540778608751083E2  
 6.025000000000000E7    -1.419075786917203E-1   1.540342318301524E2  
 6.025200000000000E7    -1.409999746950609E-1   1.539851739460119E2  
 6.025400000000000E7    -1.437137606632163E-1   1.539680970953692E2  
 6.025600000000000E7    -1.391701613134782E-1   1.539245979920507E2  
 6.025800000000000E7    -1.401975719524908E-1   1.539023883057816E2  
 6.026000000000000E7    -1.393022285410394E-1   1.538886233844871E2  
 6.026200000000000E7    -1.426752446179181E-1   1.538427133272917E2  
 6.026400000000000E7    -1.400876345297788E-1   1.538085362588033E2  
 6.026600000000000E7    -1.413156370771670E-1   1.537823852635419E2  
 6.026800000000000E7    -1.406156601622822E-1   1.537252135769587E2  
 6.027000000000000E7    -1.420664432092364E-1   1.536922982551646E2  
 6.027200000000000E7    -1.451067039782357E-1   1.536807344820505E2  
 6.027400000000000E7    -1.400710450396254E-1   1.536348666478122E2  
 6.027600000000000E7    -1.366432291061957E-1   1.536047863853084E2  
 6.027800000000000E7    -1.409649579249674E-1   1.535609789061052E2  
 6.028000000000000E7    -1.409816981713441E-1   1.535308060987416E2  
 6.028200000000000E7    -1.390454902544097E-1   1.535110427056632E2  
 6.028400000000000E7    -1.416985563965922E-1   1.534511092709695E2  
 6.028600000000000E7    -1.415079244661970E-1   1.534360929140516E2  
 6.028800000000000E7    -1.425418685408340E-1   1.533902059590297E2  
 6.029000000000000E7    -1.457300075282048E-1   1.533594113919686E2  
 6.029200000000000E7    -1.411100291124895E-1   1.533146818581425E2  
 6.029400000000000E7    -1.377370931234389E-1   1.533203968822549E2  
 6.029600000000000E7    -1.435036904121488E-1   1.532575270818010E2  
 6.029800000000000E7    -1.441916944876030E-1   1.532524445258530E2  
 6.030000000000000E7    -1.414631390268269E-1   1.531951295405861E2  
 6.030200000000000E7    -1.412777660582644E-1   1.531708747464158E2  
 6.030400000000000E7    -1.393386931859600E-1   1.531314820089066E2  
 6.030600000000000E7    -1.382467216383888E-1   1.530992178086177E2  
 6.030800000000000E7    -1.418749437022908E-1   1.530634082708486E2  
 6.031000000000000E7    -1.446391642421037E-1   1.530134431185999E2  
 6.031200000000000E7    -1.388708444736614E-1   1.529999805732537E2  
 6.031400000000000E7    -1.419441906135628E-1   1.529774133747138E2  
 6.031600000000000E7    -1.428692300244230E-1   1.529323328367622E2  
 6.031800000000000E7    -1.427057505924275E-1   1.528989232659755E2  
 6.032000000000000E7    -1.380347604116353E-1   1.528582419861490E2  
 6.032200000000000E7    -1.406439721564462E-1   1.528362202352244E2  
 6.032400000000000E7    -1.403584589839149E-1   1.527968454276612E2  
 6.032600000000000E7    -1.400716044775802E-1   1.527655538333939E2  
 6.032800000000000E7    -1.383193041846466E-1   1.527382201880070E2  
 6.033000000000000E7    -1.451044871147696E-1   1.527077034689370E2  
 6.033200000000000E7    -1.444295809570690E-1   1.526492965355821E2  
 6.033400000000000E7    -1.429960092708523E-1   1.526214777215012E2  
 6.033600000000000E7    -1.393067505820889E-1   1.526045728274694E2  
 6.033800000000000E7    -1.441200979283514E-1   1.525435561910615E2  
 6.034000000000000E7    -1.420152191469005E-1   1.525051624689650E2  
 6.034200000000000E7    -1.429507280688982E-1   1.524861038229300E2  
 6.034400000000000E7    -1.414874835999095E-1   1.524609054225962E2  
 6.034600000000000E7    -1.422458967408608E-1   1.524337144401093E2  
 6.034800000000000E7    -1.447193766854196E-1   1.523873322748461E2  
 6.035000000000000E7    -1.419716066383615E-1   1.523440214922955E2  
 6.035200000000000E7    -1.448395089766638E-1   1.523223879404730E2  
 6.035400000000000E7    -1.443499494031731E-1   1.522710560272555E2  
 6.035600000000000E7    -1.425158479908216E-1   1.522360950727333E2  
 6.035800000000000E7    -1.425802668529863E-1   1.521998476023460E2  
 6.036000000000000E7    -1.450769409371584E-1   1.521932199971320E2  
 6.036200000000000E7    -1.400573858274540E-1   1.521433079366983E2  
 6.036400000000000E7    -1.422567794832444E-1   1.521203255480862E2  
 6.036600000000000E7    -1.398523044226079E-1   1.520730994553470E2  
 6.036800000000000E7    -1.423637556699591E-1   1.520518927727957E2  
 6.037000000000000E7    -1.405306238506544E-1   1.520264184881731E2  
 6.037200000000000E7    -1.420775808145722E-1   1.519983481350847E2  
 6.037400000000000E7    -1.434138629607127E-1   1.519412438085685E2  
 6.037600000000000E7    -1.420351373369796E-1   1.519172402765136E2  
 6.037800000000000E7    -1.438081241055946E-1   1.518781156932891E2  
 6.038000000000000E7    -1.452270220407660E-1   1.518483597545245E2  
 6.038200000000000E7    -1.445284044959259E-1   1.517876934571955E2  
 6.038400000000000E7    -1.382046099565362E-1   1.517760262023425E2  
 6.038600000000000E7    -1.436913409402308E-1   1.517548345635319E2  
 6.038800000000000E7    -1.434768113341189E-1   1.516982482484924E2  
 6.039000000000000E7    -1.433308647405993E-1   1.516709886307015E2  
 6.039200000000000E7    -1.425791952748024E-1   1.516585239074301E2  
 6.039400000000000E7    -1.467356777466020E-1   1.516160477952191E2  
 6.039600000000000E7    -1.460420920386053E-1   1.515837881466802E2  
 6.039800000000000E7    -1.448320888096037E-1   1.515478817917529E2  
 6.040000000000000E7    -1.456779907994213E-1   1.514968084053633E2  
 6.040200000000000E7    -1.432574148447579E-1   1.514799269052642E2  
 6.040400000000000E7    -1.435484909517464E-1   1.514450270255770E2  
 6.040600000000000E7    -1.442601846058053E-1   1.514295481105318E2  
 6.040800000000000E7    -1.456204883157178E-1   1.513657419432037E2  
 6.041000000000000E7    -1.435652543569251E-1   1.513326580763340E2  
 6.041200000000000E7    -1.446973806020368E-1   1.513073273649377E2  
 6.041400000000000E7    -1.438619787047269E-1   1.512669402103655E2  
 6.041600000000000E7    -1.463426988377136E-1   1.512358101860322E2  
 6.041800000000000E7    -1.471264868205428E-1   1.512033442786111E2  
 6.042000000000000E7    -1.417577713687172E-1   1.511707839082717E2  
 6.042200000000000E7    -1.437991652646057E-1   1.511176169733593E2  
 6.042400000000000E7    -1.425638961424986E-1   1.510942662516513E2  
 6.042600000000000E7    -1.445106925043897E-1   1.510538973238810E2  
 6.042800000000000E7    -1.436139959175588E-1   1.510218988243447E2  
 6.043000000000000E7    -1.464721002845416E-1   1.510144830234318E2  
 6.043200000000000E7    -1.408316317377741E-1   1.509548969355978E2  
 6.043400000000000E7    -1.416323116219464E-1   1.509394373356981E2  
 6.043600000000000E7    -1.429461513556739E-1   1.508885039431468E2  
 6.043800000000000E7    -1.425086382538384E-1   1.508594728356212E2  
 6.044000000000000E7    -1.467836148102063E-1   1.508072403835094E2  
 6.044200000000000E7    -1.473390606018228E-1   1.507954840093980E2  
 6.044400000000000E7    -1.455889210367988E-1   1.507333274228795E2  
 6.044600000000000E7    -1.436200460083509E-1   1.507314825831666E2  
 6.044800000000000E7    -1.447005253441361E-1   1.506807365397630E2  
 6.045000000000000E7    -1.440899664328388E-1   1.506467374894036E2  
 6.045200000000000E7    -1.458934378096944E-1   1.506293842729355E2  
 6.045400000000000E7    -1.450201519085448E-1   1.505871949570086E2  
 6.045600000000000E7    -1.450510597752033E-1   1.505531736325358E2  
 6.045800000000000E7    -1.475322503716815E-1   1.505084131674719E2  
 6.046000000000000E7    -1.425637761828773E-1   1.504926487989806E2  
 6.046200000000000E7    -1.452506215759163E-1   1.504405540799118E2  
 6.046400000000000E7    -1.466996778108265E-1   1.503989576370058E2  
 6.046600000000000E7    -1.502591454232001E-1   1.503770995978669E2  
 6.046800000000000E7    -1.431274449829783E-1   1.503402293766152E2  
 6.047000000000000E7    -1.446220645465008E-1   1.503076822615973E2  
 6.047200000000000E7    -1.459151297317315E-1   1.502789607621173E2  
 6.047400000000000E7    -1.430150343746000E-1   1.502343661386912E2  
 6.047600000000000E7    -1.447903431992157E-1   1.501981593683830E2  
 6.047800000000000E7    -1.426257149207480E-1   1.501641830008506E2  
 6.048000000000000E7    -1.464287285885355E-1   1.501379932057836E2  
 6.048200000000000E7    -1.449579033628990E-1   1.501125973252278E2  
 6.048400000000000E7    -1.434037866419048E-1   1.500680919009416E2  
 6.048600000000000E7    -1.492992770402301E-1   1.500305319983764E2  
 6.048800000000000E7    -1.455171052253690E-1   1.499881717589991E2  
 6.049000000000000E7    -1.457254309057146E-1   1.499730850272650E2  
 6.049200000000000E7    -1.457464685910525E-1   1.499146563219231E2  
 6.049400000000000E7    -1.423704761727324E-1   1.498793524782050E2  
 6.049600000000000E7    -1.456348287274769E-1   1.498479359282036E2  
 6.049800000000000E7    -1.465887057013061E-1   1.498358829979600E2  
 6.050000000000000E7    -1.447711201422437E-1   1.497727588859187E2  
 6.050200000000000E7    -1.453028838060223E-1   1.497506287602144E2  
 6.050400000000000E7    -1.455607096364749E-1   1.497134582117611E2  
 6.050600000000000E7    -1.434651316607541E-1   1.496799302307724E2  
 6.050800000000000E7    -1.437466673486011E-1   1.496321964964585E2  
 6.051000000000000E7    -1.485044541822659E-1   1.496291507207396E2  
 6.051200000000000E7    -1.483580251494527E-1   1.495652984464604E2  
 6.051400000000000E7    -1.440118259909999E-1   1.495338418209591E2  
 6.051600000000000E7    -1.484723724246065E-1   1.495160678339719E2  
 6.051800000000000E7    -1.437522130650304E-1   1.494684795670835E2  
 6.052000000000000E7    -1.498525074047268E-1   1.494390157690493E2  
 6.052200000000000E7    -1.459906249086284E-1   1.494169281484761E2  
 6.052400000000000E7    -1.448796398715643E-1   1.493660936417663E2  
 6.052600000000000E7    -1.458827916676630E-1   1.493300274921339E2  
 6.052800000000000E7    -1.472325210034625E-1   1.492777221884194E2  
 6.053000000000000E7    -1.456891999957344E-1   1.492437107134460E2  
 6.053200000000000E7    -1.473584084518317E-1   1.492186176505086E2  
 6.053400000000000E7    -1.456735602466904E-1   1.491858354438005E2  
 6.053600000000000E7    -1.441594009993164E-1   1.491347969752116E2  
 6.053800000000000E7    -1.470640705051879E-1   1.491186928182227E2  
 6.054000000000000E7    -1.513285845335321E-1   1.490880690636919E2  
 6.054200000000000E7    -1.467983696149122E-1   1.490545661706294E2  
 6.054400000000000E7    -1.503390825775874E-1   1.490011855201544E2  
 6.054600000000000E7    -1.470176851542321E-1   1.489765251885382E2  
 6.054800000000000E7    -1.471974662503995E-1   1.489463359467301E2  
 6.055000000000000E7    -1.439007622473229E-1   1.488904698044192E2  
 6.055200000000000E7    -1.467880296401658E-1   1.488605116496136E2  
 6.055400000000000E7    -1.435115054234001E-1   1.488327998496221E2  
 6.055600000000000E7    -1.474127234078885E-1   1.488008378055989E2  
 6.055800000000000E7    -1.502966033576005E-1   1.487557426122907E2  
 6.056000000000000E7    -1.449559860550972E-1   1.487205192145523E2  
 6.056200000000000E7    -1.473126889802834E-1   1.486835268000123E2  
 6.056400000000000E7    -1.467158186532766E-1   1.486686991314187E2  
