#  HZ   S   DB   R     50.00 
! Rohde & Schwarz Vector Network Analyzer 
! Rohde-Schwarz,ZNB8-4Port,1311601044102961,2.82
! Created: UTC 2/7/2022, 2:55:17 PM
! freq[Hz]                db:S11                  ang:S11                 db:S12                  ang:S12                 db:S13                  ang:S13
!                         db:S21                  ang:S21                 db:S22                  ang:S22                 db:S23                  ang:S23
!                         db:S31                  ang:S31                 db:S32                  ang:S32                 db:S33                  ang:S33
! 
 6.120000000000000E7    -1.210494553902458E-1    1.236637893936494E1    -7.402742854157910E1     7.172156435768675E1    -8.824779255514316E1    -1.242649091687297E2
                        -7.355432216085657E1     6.816007863865509E1    -2.094747791293517E-2   -4.627560583203107E1    -9.509915931122831E1    -1.644635881058364E2
                        -9.108444212166042E1    -1.411073349951653E2    -9.917128056933080E1    -2.621070672343168E1    -1.540837728603481E-2   -4.154584722091094E1

 6.120100000000000E7    -1.234228772918505E-1    1.233844877927117E1    -7.416863765818177E1     7.232833705077631E1    -8.843154406568296E1    -1.116842416859699E2
                        -7.397384834142495E1     6.869888252316200E1    -2.753728469062090E-2   -4.628863510142583E1    -9.915648502126034E1    -1.332693854486133E2
                        -9.035044942793304E1    -8.572542671416457E1    -9.778517738219111E1     1.660234329545485E1    -1.523258436104788E-2   -4.154006239307137E1

 6.120200000000000E7    -1.226922534756986E-1    1.230751978066571E1    -7.377946611223278E1     6.777957047048119E1    -8.512969392411806E1    -9.797354952389620E1
                        -7.392544842135715E1     6.997941181207629E1    -2.473762932167922E-2   -4.629823122011820E1    -1.005826515056965E2     7.600207230531885E1
                        -8.877228750707903E1    -1.011854443769921E2    -9.493025789124381E1     4.012785308497622E1    -1.686627048372640E-2   -4.155197205936621E1

 6.120300000000000E7    -1.225084470799242E-1    1.228553567413758E1    -7.302464262200714E1     6.992976617523733E1    -8.671480503356472E1    -1.191468734939908E2
                        -7.410524505995919E1     6.740438511383843E1    -2.527237572271937E-2   -4.629786731240311E1    -9.596788346540453E1     2.317926306182753E1
                        -8.640435458068971E1    -1.042121262900814E2    -9.960470658045122E1    -1.707143046421009E2    -1.808729476743579E-2   -4.156734106362024E1

 6.120400000000000E7    -1.201685833791127E-1    1.226542035535492E1    -7.344358082953079E1     7.090335707418277E1    -8.789736783315379E1    -1.032744505010446E2
                        -7.321209424773274E1     7.546978466502232E1    -2.889963469632906E-2   -4.627081287954616E1    -9.706122894206553E1     8.696040641571531E1
                        -8.866865873499819E1    -1.423477325897306E2    -1.116906418659224E2    -1.744843377762572E2    -1.684054491444751E-2   -4.154929466419234E1

 6.120500000000000E7    -1.247499091868282E-1    1.224157715618606E1    -7.321242072184556E1     7.296786829850048E1    -8.613472809112400E1    -1.038509920984575E2
                        -7.423439288283588E1     7.045421212593675E1    -2.484970287181724E-2   -4.629861676573218E1    -9.801009167234555E1     1.159361863458287E2
                        -8.984723202995178E1    -1.265586870550982E2    -1.115599037591642E2     1.694605044894071E2    -1.500382789563416E-2   -4.155926889234322E1

 6.120600000000000E7    -1.236033440398382E-1    1.222265338947285E1    -7.320240286301151E1     7.187881214603370E1    -8.933099965017560E1    -1.192571282300456E2
                        -7.368513523010105E1     7.367493278577804E1    -2.850530651181283E-2   -4.629321853700788E1    -1.018973607906484E2     8.086205370084535E1
                        -8.908962475376490E1    -1.018425793235504E2    -9.183295277903449E1     1.162791475023499E2    -1.322240662111990E-2   -4.154165702371969E1

 6.120700000000000E7    -1.238330695639507E-1    1.218152177149027E1    -7.420076534707887E1     6.995882526144986E1    -8.847976682091101E1    -1.172469630111708E2
                        -7.339143832087079E1     7.592108703306757E1    -2.605795797504566E-2   -4.630182351825622E1    -9.967383433700192E1     1.304909818990607E2
                        -8.708430166692241E1    -9.153947080352636E1    -8.969183950285165E1     9.239558227949171E1    -1.475942359158860E-2   -4.156003417865332E1

 6.120800000000000E7    -1.217330798334007E-1    1.216250396063246E1    -7.338962585465515E1     7.047286443361858E1    -9.163097964809106E1    -1.181250535189392E2
                        -7.385525201972689E1     7.126509033861812E1    -2.767807917748007E-2   -4.630328145732570E1    -9.700769218445456E1     6.491434815800899E1
                        -8.847211114877717E1    -1.094942981760636E2    -9.968218017539229E1    -8.725360601288500E1    -1.771669251049473E-2   -4.155243445137162E1

 6.120900000000000E7    -1.226105434752235E-1    1.213193595311197E1    -7.396773330531006E1     7.353528656680605E1    -8.812619879617223E1    -1.267091152281058E2
                        -7.414259882575941E1     6.906255274667197E1    -2.356805238304506E-2   -4.628682607232624E1    -9.539752213719352E1     3.614753458036783E1
                        -8.550677432970183E1    -1.005003316448697E2    -9.976662363018036E1    -8.509103596424225E1    -1.816728877950365E-2   -4.155516251664845E1

 6.121000000000000E7    -1.234292620961169E-1    1.210758699604850E1    -7.386588302328636E1     7.062903719022476E1    -8.756222038346908E1    -1.386503788907392E2
                        -7.395881517798431E1     7.413122370222904E1    -2.521875843321189E-2   -4.628474284393409E1    -9.292635939363225E1     6.503962853185308E1
                        -8.896185599398635E1    -1.353587977020621E2    -9.612916757154771E1     9.900755862828439E1    -1.537815332909679E-2   -4.156864787087771E1

 6.121100000000000E7    -1.227107649987845E-1    1.208281951652120E1    -7.382688637027027E1     6.536046899008964E1    -8.590272751809785E1    -1.237949148802788E2
                        -7.426104506311233E1     7.089004691351632E1    -2.534272438644188E-2   -4.629750012919962E1    -1.060092766044187E2     6.877367915266302E1
                        -9.103486014702969E1    -1.037855491443261E2    -1.028383180928886E2     3.337245807188606E1    -1.408321150613424E-2   -4.154452302698007E1

 6.121200000000000E7    -1.211977829203027E-1    1.206402715562053E1    -7.426743853430119E1     7.443437325044498E1    -8.813467528143265E1    -1.242639661931151E2
                        -7.347321524346432E1     6.962172960042484E1    -2.605772223804343E-2   -4.629186501228463E1    -9.968209420410318E1     4.010580018848026E1
                        -9.134166415463625E1    -1.161172263361128E2    -9.491428692873637E1     6.173112640834475E1    -1.654148625979162E-2   -4.156726704307259E1

 6.121300000000000E7    -1.240775924912913E-1    1.204037319268015E1    -7.404860479567861E1     7.446769533278938E1    -8.746868167861430E1    -1.035027099714357E2
                        -7.404184614217824E1     7.745065455422524E1    -2.423365259789013E-2   -4.629279919580075E1    -1.044599189752785E2    -9.467775454052764E1
                        -8.816226334734336E1    -1.344134741970924E2    -1.071591175216116E2    -1.713974083966028E2    -1.572919577891274E-2   -4.156040980860327E1

 6.121400000000000E7    -1.229060176022213E-1    1.202508967890037E1    -7.375708871466982E1     7.185243312611681E1    -8.691215650045047E1    -9.806391471736754E1
                        -7.394178467002672E1     6.957483693439511E1    -2.679089658509683E-2   -4.631553857964406E1    -9.835747803925406E1     1.032696708615979E2
                        -8.790948684154222E1    -9.395335697809837E1    -1.101680152989431E2     1.228048106783771E2    -1.564524525813105E-2   -4.154835274529187E1

 6.121500000000000E7    -1.246197839639535E-1    1.197900998071896E1    -7.372104308570886E1     6.813788392343641E1    -8.819851604241485E1    -1.192787418366275E2
                        -7.471209622272214E1     7.281103461224095E1    -2.773144229252255E-2   -4.629738588505664E1    -9.177098233457018E1     9.759151721999052E1
                        -8.630713667077366E1    -1.156701689500880E2    -1.039366196568746E2     1.482619061781067E2    -1.433222015336442E-2   -4.157133242509318E1

 6.121600000000000E7    -1.223471770050266E-1    1.194811508336217E1    -7.327124710620397E1     7.135088447185483E1    -8.603521256261247E1    -1.362425113997302E2
                        -7.327744091004095E1     7.849606124795388E1    -2.794842135850316E-2   -4.631338761902696E1    -9.905577772191481E1     1.872245460131835E1
                        -8.620773448259504E1    -1.122423689004523E2    -9.872902405260680E1     9.919410673673704E1    -1.501687354092508E-2   -4.157064330893117E1

 6.121700000000000E7    -1.226261334816329E-1    1.192750475251331E1    -7.433755233035649E1     7.433628759842419E1    -8.810011853013718E1    -1.080760368936196E2
                        -7.333843251493498E1     7.375151392044803E1    -2.542557335323499E-2   -4.630327265845837E1    -9.776554364422437E1     1.977900642391313E1
                        -9.057612056481557E1    -1.217749172681074E2    -1.034817610921228E2     1.136581833453459E2    -1.612801819246084E-2   -4.156616383177794E1

 6.121800000000000E7    -1.231092458080886E-1    1.191406602865876E1    -7.378458314923653E1     7.196036722189322E1    -8.880101811343246E1    -1.225852238820776E2
                        -7.316582981340120E1     7.522104085334080E1    -2.428406133865240E-2   -4.630308707728703E1    -1.017671783123598E2     2.556886117981128E1
                        -8.472468337604099E1    -1.110394942849830E2    -1.039832737122556E2    -3.865085409356065E1    -1.510851102135462E-2   -4.156654580515671E1

 6.121900000000000E7    -1.241843102082471E-1    1.187875264031109E1    -7.354996444355876E1     7.541633327471746E1    -8.995760106143382E1    -1.264245635182173E2
                        -7.374486073515632E1     6.755633311217174E1    -2.710591815867695E-2   -4.627182387905664E1    -9.571598947670493E1     1.175384312965259E2
                        -8.723108500362844E1    -9.057914724788743E1    -1.027163967822975E2    -1.320916606589571E1    -1.631163253656756E-2   -4.156326307546186E1

 6.122000000000000E7    -1.253008778986640E-1    1.185191575413861E1    -7.333788670627666E1     7.433888381252113E1    -8.765726931836092E1    -1.377704988330610E2
                        -7.438700669270980E1     7.291781367160607E1    -2.550054654383468E-2   -4.630161252371486E1    -1.000164599711887E2     7.123651716353993E1
                        -8.641441368917029E1    -1.116708124231154E2    -1.009738626562481E2     3.666043208077326E1    -1.427657733207850E-2   -4.156763680651232E1

 6.122100000000000E7    -1.228291270096060E-1    1.182062735439173E1    -7.434429864409691E1     7.386947634954552E1    -8.931585499917723E1    -1.123464725052541E2
                        -7.367052472435000E1     7.130131406883581E1    -2.858126424931233E-2   -4.628539644657917E1    -1.012574361789571E2    -9.933033066652205E1
                        -8.753450402549800E1    -1.101879023649454E2    -1.000413381359791E2     6.057477623477230E1    -1.257664336671895E-2   -4.155952841380208E1

 6.122200000000000E7    -1.221590947831988E-1    1.179595338837664E1    -7.359880134405329E1     7.262675322618591E1    -8.528178305179310E1    -1.100904718622787E2
                        -7.356844086849497E1     7.481364411777189E1    -2.602976233217069E-2   -4.631994591647560E1    -9.867719457249790E1    -1.376945491101519E2
                        -8.970397258754156E1    -1.217925884858622E2    -1.069497863029103E2     1.194432627020448      -1.676175146018741E-2   -4.155008992634512E1

 6.122300000000000E7    -1.228706571309390E-1    1.177692414044712E1    -7.303992780098044E1     6.764804832749668E1    -8.651697214399050E1    -1.045554480279397E2
                        -7.343909296637335E1     7.168166119131752E1    -2.453823950557057E-2   -4.629683893771229E1    -1.072208236745216E2     5.101956509001523E1
                        -8.851033252374313E1    -1.305730776380091E2    -9.798274487986126E1     2.939240414840527E1    -1.441521878058300E-2   -4.156135588419097E1

 6.122400000000000E7    -1.246153053059625E-1    1.175389507431269E1    -7.307213485723727E1     7.374618257869111E1    -8.653562416290370E1    -1.141283197138908E2
                        -7.389487511198638E1     6.988963324271262E1    -2.853503462547373E-2   -4.628177038644754E1    -9.692934244433175E1     4.207865530598364E1
                        -8.750291148047256E1    -9.847170627320050E1    -1.131575090022739E2    -8.521782187800959E1    -1.540969948567813E-2   -4.156577477663574E1

 6.122500000000000E7    -1.243988437019463E-1    1.171010344355667E1    -7.392525647080534E1     7.059531412890765E1    -8.524202516546325E1    -1.161563803204341E2
                        -7.339191902684061E1     7.241355200546072E1    -2.505934223579062E-2   -4.631246616151601E1    -9.215829196819593E1    -2.544722532253180E1
                        -9.335651560015491E1    -1.244364870980927E2    -9.526465185329847E1     1.665498658521416E2    -1.231398609254000E-2   -4.157409840526164E1

 6.122600000000000E7    -1.237810843397111E-1    1.167367720582873E1    -7.397016523808568E1     6.997761496894249E1    -8.598257914878249E1    -1.125461249443533E2
                        -7.443975202736863E1     6.920682067141804E1    -3.011857811149810E-2   -4.631770282108816E1    -1.007929198466796E2     1.136483939266541E2
                        -8.836209017531547E1    -1.214513374013719E2    -9.925386119380929E1     5.785265238038684E1    -1.659133894222230E-2   -4.156721054677098E1

 6.122700000000000E7    -1.249976467048250E-1    1.167268524786680E1    -7.352512596095102E1     6.984473119851201E1    -9.222145830082953E1    -1.251255103447295E2
                        -7.400105745766916E1     7.044582896832114E1    -2.734289433706910E-2   -4.631279651050265E1    -9.845473150238206E1     4.976219289397022E1
                        -8.863651143535167E1    -1.017058496443722E2    -1.118195077926560E2    -1.184706267544492E2    -1.695611431682659E-2   -4.157186922382118E1

 6.122800000000000E7    -1.273275681049159E-1    1.163410356261671E1    -7.299983873240915E1     7.042833077972774E1    -8.845350478148298E1    -1.156012748789366E2
                        -7.386366023686767E1     6.909361065977602E1    -2.528166668499057E-2   -4.630503380651498E1    -1.012115865078319E2     1.117864993478856E2
                        -8.539597724521003E1    -1.258581952354720E2    -9.908742512033511E1    -7.601205784160439E1    -1.667919621653681E-2   -4.158550689168153E1

 6.122900000000000E7    -1.247673358927834E-1    1.161055553000098E1    -7.337031388582234E1     7.108741956709238E1    -8.374182441601707E1    -1.154564007394819E2
                        -7.319838309929089E1     7.194502307474366E1    -2.498969168414660E-2   -4.630248595028544E1    -1.027818613457318E2     1.127912465205510E2
                        -8.758307770179326E1    -9.788634142757982E1    -1.014215365176885E2     8.322537978294109E1    -1.618963568485628E-2   -4.156274549725898E1

 6.123000000000000E7    -1.238602352094426E-1    1.158057184981904E1    -7.348596822289676E1     7.138177588200526E1    -9.087643157161777E1    -1.103045399325414E2
                        -7.391346782236164E1     7.833541182974044E1    -2.639779972562241E-2   -4.631105810835044E1    -9.631458080551668E1     3.550893544128827E1
                        -8.599721983161629E1    -1.156717704573770E2    -9.617093085033818E1    -2.679450824028035E1    -1.547263040038587E-2   -4.156412111060583E1

 6.123100000000000E7    -1.240303740972637E-1    1.155820379991746E1    -7.355611036809607E1     6.885327887706100E1    -8.604519898918073E1    -1.004641679696421E2
                        -7.319830708562425E1     7.267479634037090E1    -2.448105489759580E-2   -4.630447820198205E1    -9.822314251887531E1     8.592044612141083E1
                        -8.826580368843672E1    -1.204214961136176E2    -9.185308530364344E1     2.905171110942701E1    -1.369102193203792E-2   -4.154696239874195E1

 6.123200000000000E7    -1.245448141445299E-1    1.152934121409030E1    -7.379466784653960E1     7.541020118334909E1    -8.894101157690484E1    -9.605109982070614E1
                        -7.350412419497832E1     7.353181614546892E1    -2.541538688532760E-2   -4.630597369469146E1    -1.028635228841883E2    -1.130689964952844E2
                        -8.731367645114773E1    -1.076498172692002E2    -9.643121287778800E1     1.835515103665930E1    -1.439147446893967E-2   -4.157053364727170E1

 6.123300000000000E7    -1.253223827663836E-1    1.151092882797093E1    -7.383640444296535E1     7.382413956825263E1    -8.643719319842836E1    -1.037492594544841E2
                        -7.403624227009772E1     7.666487862689540E1    -2.575769340253781E-2   -4.631542547982030E1    -9.156177478941248E1     1.390448476729972E2
                        -8.954574760262283E1    -1.033975818203381E2    -1.027368668472958E2     4.912655811942219E1    -1.356982715619467E-2   -4.155780953760404E1

 6.123400000000000E7    -1.222464613463388E-1    1.148786974851321E1    -7.330147789414005E1     7.429883018521763E1    -8.843785020512435E1    -1.246183736925696E2
                        -7.332460171833444E1     7.426925836000481E1    -2.539956892006176E-2   -4.631729938856959E1    -9.562116212128585E1     1.441353521624624E2
                        -8.503255783121666E1    -1.106541910705784E2    -9.736854425602280E1     7.837530731304034E1    -1.588117429947941E-2   -4.156284816175609E1

 6.123500000000000E7    -1.248993091976950E-1    1.145313066097478E1    -7.310271294932673E1     6.964039428029599E1    -8.533748816819690E1    -1.045479173047166E2
                        -7.314888030982046E1     7.431747763639116E1    -2.577150883679267E-2   -4.628103733249269E1    -1.075781857258303E2     8.627774306645442
                        -8.560791936919594E1    -1.313679145437525E2    -1.109134880952751E2    -8.209302569786959E1    -1.456851615307191E-2   -4.157707785205879E1

 6.123600000000000E7    -1.268287445596076E-1    1.142069230708844E1    -7.406189340968838E1     6.974419923593116E1    -8.634487718362267E1    -1.099630723024203E2
                        -7.344968148858625E1     7.100787915280355E1    -2.512409991927797E-2   -4.633573442893479E1    -9.993280744596321E1    -1.046026482590049E2
                        -8.818659219104559E1    -1.096568144577708E2    -1.036685989816055E2     7.605939517574767E1    -1.563901342316685E-2   -4.158269569249868E1

 6.123700000000000E7    -1.241024349179097E-1    1.140757695565841E1    -7.383614452727186E1     7.017406595981082E1    -8.629723808173715E1    -1.126983461786237E2
                        -7.312044919713017E1     6.828007023821000E1    -2.614334862668342E-2   -4.631501471926581E1    -1.004034012312406E2     4.919122410470077E1
                        -8.859781399218485E1    -1.127797355917056E2    -9.059874383221144E1     7.524015240678452E1    -1.707360753579977E-2   -4.158530324185016E1

 6.123800000000000E7    -1.261873082523653E-1    1.138575200739576E1    -7.392071837068190E1     6.817867056067031E1    -8.553776977180587E1    -1.127410857709646E2
                        -7.352581370971721E1     7.543288597188203E1    -2.711265551779331E-2   -4.629522501982199E1    -9.589660503321177E1     1.598543167082191E2
                        -8.904261459943500E1    -1.244205404762345E2    -9.697624668727070E1     3.519782298565277E1    -1.647928249771267E-2   -4.157217821398686E1

