#  HZ   S   DB   R     50.00 
! Rohde & Schwarz ZVB8 2Ports - Version 3.70 - 1145.1010k08 SN: 100925
! Date: 2021-12-10 17:20:26
! Measurement: S11 
! 
 6.100000000000000E7    -6.739023741829467E-2   1.424255705367886E2  
 6.100150000000000E7    -6.747571014467932E-2   1.424029820415069E2  
 6.100300000000000E7    -6.775843607372321E-2   1.423722828077206E2  
 6.100450000000000E7    -6.742692369597517E-2   1.423414959983729E2  
 6.100600000000000E7    -6.758045313855719E-2   1.423141200627227E2  
 6.100750000000000E7    -6.782339878861673E-2   1.422864031472988E2  
 6.100900000000000E7    -6.746219029836646E-2   1.422544252355560E2  
 6.101050000000000E7    -6.755647992092387E-2   1.422245968493251E2  
 6.101200000000000E7    -6.778215571161247E-2   1.421928897545301E2  
 6.101350000000000E7    -6.716323590579466E-2   1.421675078875677E2  
 6.101500000000000E7    -6.751196343479328E-2   1.421290413602544E2  
 6.101650000000000E7    -6.736728464981437E-2   1.421082862966747E2  
 6.101800000000000E7    -6.736654931443015E-2   1.420790210809697E2  
 6.101950000000000E7    -6.711135617561001E-2   1.420472255657710E2  
 6.102100000000000E7    -6.697124933615427E-2   1.420208334235823E2  
 6.102250000000000E7    -6.795077516088757E-2   1.419901808902102E2  
 6.102400000000000E7    -6.814234635421854E-2   1.419610147437020E2  
 6.102550000000000E7    -6.784324503361267E-2   1.419273711246639E2  
 6.102700000000000E7    -6.836026789255316E-2   1.418975408511389E2  
 6.102850000000000E7    -6.775306885799610E-2   1.418743953394861E2  
 6.103000000000000E7    -6.826488124010932E-2   1.418439853623973E2  
 6.103150000000000E7    -6.780466052957943E-2   1.418213692978890E2  
 6.103300000000000E7    -6.825568326970617E-2   1.417825142944698E2  
 6.103450000000000E7    -6.838303032836587E-2   1.417516605391913E2  
 6.103600000000000E7    -6.888280687331988E-2   1.417165999581839E2  
 6.103750000000000E7    -6.994145197126926E-2   1.416863496972442E2  
 6.103900000000000E7    -6.969234836108106E-2   1.416615377955581E2  
 6.104050000000000E7    -6.960648214989094E-2   1.416295042930571E2  
 6.104200000000000E7    -6.974835706609657E-2   1.415958534709745E2  
 6.104350000000000E7    -6.943547828369953E-2   1.415687195676129E2  
 6.104500000000000E7    -6.878064469317088E-2   1.415428151269896E2  
 6.104650000000000E7    -6.837244039339602E-2   1.415074988148571E2  
 6.104800000000000E7    -6.860789853060222E-2   1.414793035385112E2  
 6.104950000000000E7    -6.990519128771412E-2   1.414488772140151E2  
 6.105100000000000E7    -6.911499130414951E-2   1.414232486074262E2  
 6.105250000000000E7    -6.898600660804789E-2   1.413870366938409E2  
 6.105400000000000E7    -6.864929830537409E-2   1.413579985530898E2  
 6.105550000000000E7    -6.888836779784566E-2   1.413273749432406E2  
 6.105700000000000E7    -6.921190336089585E-2   1.412918832662599E2  
 6.105850000000000E7    -6.986058140844650E-2   1.412661259601654E2  
 6.106000000000000E7    -6.984598598053034E-2   1.412351442561638E2  
 6.106150000000000E7    -6.958274373866522E-2   1.412026982260390E2  
 6.106300000000000E7    -7.004915098830837E-2   1.411758181598621E2  
 6.106450000000000E7    -6.983204895742178E-2   1.411442591680211E2  
 6.106600000000000E7    -6.981777558807038E-2   1.411180127313076E2  
 6.106750000000000E7    -6.887392355656155E-2   1.410878184486562E2  
 6.106900000000000E7    -6.946042113882303E-2   1.410527969770516E2  
 6.107050000000000E7    -6.875086457456048E-2   1.410204207356011E2  
 6.107200000000000E7    -6.974053165440172E-2   1.409911954422643E2  
 6.107350000000000E7    -7.035201471274256E-2   1.409615502498182E2  
 6.107500000000000E7    -7.065731915736516E-2   1.409336434018066E2  
 6.107650000000000E7    -7.024508188447878E-2   1.408972188884406E2  
 6.107800000000000E7    -7.108627941532279E-2   1.408648282717424E2  
 6.107950000000000E7    -7.050217377675962E-2   1.408401726958060E2  
 6.108100000000000E7    -7.035634887979628E-2   1.408077137616437E2  
 6.108250000000000E7    -6.973451569256356E-2   1.407805946171647E2  
 6.108400000000000E7    -7.114651893591754E-2   1.407484653939192E2  
 6.108550000000000E7    -7.048336638049083E-2   1.407112236960051E2  
 6.108700000000000E7    -7.108819480710911E-2   1.406854618256213E2  
 6.108850000000000E7    -7.174957233151377E-2   1.406521592338770E2  
 6.109000000000000E7    -7.199156884470707E-2   1.406247641084355E2  
 6.109150000000000E7    -7.197946280856411E-2   1.405930159148392E2  
 6.109300000000000E7    -7.216964170244149E-2   1.405620061905293E2  
 6.109450000000000E7    -7.134083809166811E-2   1.405346780150464E2  
 6.109600000000000E7    -7.100714679083246E-2   1.404968577254967E2  
 6.109750000000000E7    -7.095069011317438E-2   1.404648231623204E2  
 6.109900000000000E7    -7.133486289140069E-2   1.404326147052714E2  
 6.110050000000000E7    -7.068397638215350E-2   1.403990969855968E2  
 6.110200000000000E7    -7.172496851149909E-2   1.403724329118780E2  
 6.110350000000000E7    -7.209488825559393E-2   1.403398589905837E2  
 6.110500000000000E7    -7.200416487648162E-2   1.403118608220927E2  
 6.110650000000000E7    -7.175969708877868E-2   1.402816457903872E2  
 6.110800000000000E7    -7.249752981321571E-2   1.402475081008009E2  
 6.110950000000000E7    -7.221980995713165E-2   1.402165109458762E2  
 6.111100000000000E7    -7.224562334821828E-2   1.401812099803042E2  
 6.111250000000000E7    -7.190452392448578E-2   1.401474310484937E2  
 6.111400000000000E7    -7.234264245716350E-2   1.401140187575720E2  
 6.111550000000000E7    -7.258160143528142E-2   1.400824853549214E2  
 6.111700000000000E7    -7.216931303938917E-2   1.400552972671194E2  
 6.111850000000000E7    -7.280543178335537E-2   1.400262939388766E2  
 6.112000000000000E7    -7.396409988369630E-2   1.399880275685923E2  
 6.112150000000000E7    -7.335570821972201E-2   1.399528821735917E2  
 6.112300000000000E7    -7.447180582957913E-2   1.399252251674979E2  
 6.112450000000000E7    -7.334683680373459E-2   1.398932305061943E2  
 6.112600000000000E7    -7.330327488106424E-2   1.398635216253920E2  
 6.112750000000000E7    -7.381926581462359E-2   1.398298370484604E2  
 6.112900000000000E7    -7.358066167647955E-2   1.397909497313445E2  
 6.113050000000000E7    -7.352917400460246E-2   1.397602924949956E2  
 6.113200000000000E7    -7.371721167019650E-2   1.397318717764839E2  
 6.113350000000000E7    -7.320652697504443E-2   1.396969239683630E2  
 6.113500000000000E7    -7.344289857501110E-2   1.396687612500761E2  
 6.113650000000000E7    -7.418363726495406E-2   1.396328167056435E2  
 6.113800000000000E7    -7.429899950703700E-2   1.395990284670068E2  
 6.113950000000000E7    -7.426074089715781E-2   1.395631760451699E2  
 6.114100000000000E7    -7.429132916882368E-2   1.395362305702091E2  
 6.114250000000000E7    -7.459804632538107E-2   1.394990898918623E2  
 6.114400000000000E7    -7.542091266147699E-2   1.394723808217883E2  
 6.114550000000000E7    -7.529097329582435E-2   1.394361489537698E2  
 6.114700000000000E7    -7.514888806846368E-2   1.394014870878524E2  
 6.114850000000000E7    -7.541595883789225E-2   1.393723451494051E2  
 6.115000000000000E7    -7.574344722291575E-2   1.393402352588506E2  
 6.115150000000000E7    -7.531952700521639E-2   1.393046412886972E2  
 6.115300000000000E7    -7.524924769543911E-2   1.392743145907624E2  
 6.115450000000000E7    -7.556990512523472E-2   1.392332331329495E2  
 6.115600000000000E7    -7.639504652699568E-2   1.392042150848398E2  
 6.115750000000000E7    -7.592855926044997E-2   1.391706113286588E2  
 6.115900000000000E7    -7.636183955945543E-2   1.391395400589328E2  
 6.116050000000000E7    -7.663917129139285E-2   1.391102444361621E2  
 6.116200000000000E7    -7.772090736446351E-2   1.390705102489959E2  
 6.116350000000000E7    -7.676487055992404E-2   1.390400176775472E2  
 6.116500000000000E7    -7.686423458098204E-2   1.390042986872226E2  
 6.116650000000000E7    -7.653073904102278E-2   1.389684409620785E2  
 6.116800000000000E7    -7.721513608416375E-2   1.389367148268850E2  
 6.116950000000000E7    -7.660393316188043E-2   1.389048606197374E2  
 6.117100000000000E7    -7.724708796233884E-2   1.388711449612337E2  
 6.117250000000000E7    -7.706062890543684E-2   1.388379351933920E2  
 6.117400000000000E7    -7.645367802944100E-2   1.388019043542388E2  
 6.117550000000000E7    -7.702808980201636E-2   1.387711785952729E2  
 6.117700000000000E7    -7.782566784642522E-2   1.387375891017271E2  
 6.117850000000000E7    -7.750710428438998E-2   1.387072512793280E2  
 6.118000000000000E7    -7.793298290910329E-2   1.386754010836700E2  
 6.118150000000000E7    -7.760373192327810E-2   1.386371378984884E2  
 6.118300000000000E7    -7.814002219389975E-2   1.386017457461552E2  
 6.118450000000000E7    -7.869638217459718E-2   1.385622692610103E2  
 6.118600000000000E7    -7.815025540642763E-2   1.385298681959240E2  
 6.118750000000000E7    -7.781230131989343E-2   1.384950760811181E2  
 6.118900000000000E7    -7.761202159274545E-2   1.384666723058038E2  
 6.119050000000000E7    -7.831662771316901E-2   1.384308227190990E2  
 6.119200000000000E7    -7.785308484430041E-2   1.383990247131812E2  
 6.119350000000000E7    -7.839012725337623E-2   1.383642290371211E2  
 6.119500000000000E7    -7.931995762010909E-2   1.383327007664014E2  
 6.119650000000000E7    -7.919015841686285E-2   1.382930500321233E2  
 6.119800000000000E7    -7.920515537059675E-2   1.382556092236648E2  
 6.119950000000000E7    -7.998033983149787E-2   1.382158934487544E2  
 6.120100000000000E7    -8.022955071226719E-2   1.381779836397105E2  
 6.120250000000000E7    -7.978530769627912E-2   1.381489921783369E2  
 6.120400000000000E7    -8.085573500242647E-2   1.381079607722544E2  
 6.120550000000000E7    -8.117890828271779E-2   1.380714972380542E2  
 6.120700000000000E7    -8.065151314119845E-2   1.380372463334508E2  
 6.120850000000000E7    -8.079204255093060E-2   1.380015330429075E2  
 6.121000000000000E7    -8.120084040339679E-2   1.379656234346257E2  
 6.121150000000000E7    -8.122083663864603E-2   1.379284991176615E2  
 6.121300000000000E7    -8.199640138923256E-2   1.378913322574054E2  
 6.121450000000000E7    -8.183300680612496E-2   1.378560600316036E2  
 6.121600000000000E7    -8.131962785948925E-2   1.378194049621548E2  
 6.121750000000000E7    -8.161715355187167E-2   1.377904052780763E2  
 6.121900000000000E7    -8.128696292078490E-2   1.377477948232599E2  
 6.122050000000000E7    -8.161400013706510E-2   1.377156239813991E2  
 6.122200000000000E7    -8.156924790437216E-2   1.376856158656093E2  
 6.122350000000000E7    -8.145273604822466E-2   1.376429271014842E2  
 6.122500000000000E7    -8.182423771835244E-2   1.376111631415376E2  
 6.122650000000000E7    -8.194743653599924E-2   1.375761463411552E2  
 6.122800000000000E7    -8.303052100632181E-2   1.375400585338067E2  
 6.122950000000000E7    -8.327720801568377E-2   1.375053955726179E2  
 6.123100000000000E7    -8.342617131620715E-2   1.374658375726800E2  
 6.123250000000000E7    -8.210250704944776E-2   1.374270682822630E2  
 6.123400000000000E7    -8.292535787590570E-2   1.373891513846092E2  
 6.123550000000000E7    -8.261693410183021E-2   1.373517686147915E2  
 6.123700000000000E7    -8.321460355919290E-2   1.373145334714778E2  
 6.123850000000000E7    -8.439585944262661E-2   1.372793580522684E2  
 6.124000000000000E7    -8.440409542771571E-2   1.372431263865099E2  
 6.124150000000000E7    -8.398941021310416E-2   1.372042259304660E2  
 6.124300000000000E7    -8.369131118637324E-2   1.371661059057898E2  
 6.124450000000000E7    -8.491303825624449E-2   1.371256826215223E2  
 6.124600000000000E7    -8.526970423926712E-2   1.370910735941519E2  
 6.124750000000000E7    -8.463244247742865E-2   1.370590624183139E2  
 6.124900000000000E7    -8.451975297987566E-2   1.370203983671400E2  
 6.125050000000000E7    -8.532463368486877E-2   1.369832657963580E2  
 6.125200000000000E7    -8.558872802895497E-2   1.369473602377975E2  
 6.125350000000000E7    -8.500838197092861E-2   1.369032204520357E2  
 6.125500000000000E7    -8.474373511150361E-2   1.368643862126214E2  
 6.125650000000000E7    -8.501471394219728E-2   1.368277001879650E2  
 6.125800000000000E7    -8.598585585366192E-2   1.367873798487636E2  
 6.125950000000000E7    -8.630131512573949E-2   1.367475416593910E2  
 6.126100000000000E7    -8.624402523720715E-2   1.367083845194808E2  
 6.126250000000000E7    -8.710404007499406E-2   1.366700004497766E2  
 6.126400000000000E7    -8.678124879543668E-2   1.366358038190068E2  
 6.126550000000000E7    -8.695393873638341E-2   1.365891840959984E2  
 6.126700000000000E7    -8.757631151114709E-2   1.365534730528378E2  
 6.126850000000000E7    -8.856564884881249E-2   1.365147222679038E2  
 6.127000000000000E7    -8.835268282369242E-2   1.364779748189525E2  
 6.127150000000000E7    -8.853562924036885E-2   1.364408562245251E2  
 6.127300000000000E7    -8.781179314909393E-2   1.363976850542855E2  
 6.127450000000000E7    -8.785890004702769E-2   1.363597321039680E2  
 6.127600000000000E7    -8.789360595917051E-2   1.363153357384111E2  
 6.127750000000000E7    -8.889591086950750E-2   1.362787463469120E2  
 6.127900000000000E7    -8.898998940097415E-2   1.362433490695916E2  
 6.128050000000000E7    -9.009436571330338E-2   1.362054269443979E2  
 6.128200000000000E7    -8.947927947175678E-2   1.361564806774648E2  
 6.128350000000000E7    -8.983295346740651E-2   1.361198775034343E2  
 6.128500000000000E7    -9.007547592777346E-2   1.360778230722248E2  
 6.128650000000000E7    -9.038524113942927E-2   1.360405631471760E2  
 6.128800000000000E7    -9.039469083164446E-2   1.360017410156275E2  
 6.128950000000000E7    -9.121887803455916E-2   1.359652574570542E2  
 6.129100000000000E7    -9.079332138493797E-2   1.359230790761245E2  
 6.129250000000000E7    -9.170436514764808E-2   1.358829251662160E2  
 6.129400000000000E7    -9.165112089630839E-2   1.358471850203812E2  
 6.129550000000000E7    -9.195534089169649E-2   1.358069123386630E2  
 6.129700000000000E7    -9.248578206876396E-2   1.357611578459498E2  
 6.129850000000000E7    -9.260861014218923E-2   1.357164996978250E2  
 6.130000000000000E7    -9.295574194635438E-2   1.356679964332263E2  
 6.130150000000000E7    -9.287984100077329E-2   1.356316496663293E2  
 6.130300000000000E7    -9.363518421200628E-2   1.355842218472209E2  
 6.130450000000000E7    -9.302591356082972E-2   1.355477568982235E2  
 6.130600000000000E7    -9.359491674585775E-2   1.355003524358059E2  
 6.130750000000000E7    -9.374132156425236E-2   1.354593670550661E2  
 6.130900000000000E7    -9.454625351823764E-2   1.354209146136611E2  
 6.131050000000000E7    -9.421744578057169E-2   1.353824175188193E2  
 6.131200000000000E7    -9.516299638789481E-2   1.353402897767289E2  
 6.131350000000000E7    -9.549001667818492E-2   1.353003145688071E2  
 6.131500000000000E7    -9.549135484587991E-2   1.352568182188195E2  
 6.131650000000000E7    -9.576671427614661E-2   1.352121079206358E2  
 6.131800000000000E7    -9.605056942575323E-2   1.351721588355275E2  
 6.131950000000000E7    -9.717615004658467E-2   1.351266034094622E2  
 6.132100000000000E7    -9.774967791660146E-2   1.350854611969317E2  
 6.132250000000000E7    -9.729529177266535E-2   1.350424890314320E2  
 6.132400000000000E7    -9.742795321801581E-2   1.349944589300478E2  
 6.132550000000000E7    -9.754892571574182E-2   1.349546573427659E2  
 6.132700000000000E7    -9.811501823096670E-2   1.349125667373548E2  
 6.132850000000000E7    -9.783574998062650E-2   1.348665732471249E2  
 6.133000000000000E7    -9.756638013191282E-2   1.348165944307699E2  
 6.133150000000000E7    -9.784955004389076E-2   1.347753468536230E2  
 6.133300000000000E7    -9.862579723095782E-2   1.347319222593358E2  
 6.133450000000000E7    -9.829590718265195E-2   1.346871348338504E2  
 6.133600000000000E7    -9.816097398725661E-2   1.346446505929218E2  
 6.133750000000000E7    -9.905386367605969E-2   1.345954618885214E2  
 6.133900000000000E7    -9.974632122581424E-2   1.345502330311412E2  
 6.134050000000000E7    -1.007305467902310E-1   1.345045060952754E2  
 6.134200000000000E7    -1.009466280852558E-1   1.344594906655995E2  
 6.134350000000000E7    -1.011488583053408E-1   1.344156854482870E2  
 6.134500000000000E7    -1.015998077882673E-1   1.343641631601289E2  
 6.134650000000000E7    -1.016744359417646E-1   1.343171289640174E2  
 6.134800000000000E7    -1.023088534556137E-1   1.342791563602853E2  
 6.134950000000000E7    -1.022420605857701E-1   1.342295316429224E2  
 6.135100000000000E7    -1.024538081340021E-1   1.341871900281209E2  
 6.135250000000000E7    -1.034000774282579E-1   1.341372410800666E2  
 6.135400000000000E7    -1.041184880578531E-1   1.340886048973361E2  
 6.135550000000000E7    -1.051379163185562E-1   1.340392324800931E2  
 6.135700000000000E7    -1.045751585085823E-1   1.339934491406337E2  
 6.135850000000000E7    -1.047586268993647E-1   1.339438967336041E2  
 6.136000000000000E7    -1.056452258694095E-1   1.339005302736119E2  
 6.136150000000000E7    -1.059107999202205E-1   1.338534512778065E2  
 6.136300000000000E7    -1.061562816676740E-1   1.338004690062864E2  
 6.136450000000000E7    -1.067215575237479E-1   1.337551929909164E2  
 6.136600000000000E7    -1.069959847029679E-1   1.337071975623716E2  
 6.136750000000000E7    -1.077749209003546E-1   1.336586996466086E2  
 6.136900000000000E7    -1.076735165069704E-1   1.336108269893781E2  
 6.137050000000000E7    -1.083755690962363E-1   1.335584090641918E2  
 6.137200000000000E7    -1.088682443807989E-1   1.335049363008465E2  
 6.137350000000000E7    -1.100526152631562E-1   1.334595677961447E2  
 6.137500000000000E7    -1.101454306805399E-1   1.334035664541680E2  
 6.137650000000000E7    -1.107988358790584E-1   1.333522099429157E2  
 6.137800000000000E7    -1.112445225229372E-1   1.333049544571964E2  
 6.137950000000000E7    -1.114018975484298E-1   1.332557417198206E2  
 6.138100000000000E7    -1.111636902925444E-1   1.332088712200312E2  
 6.138250000000000E7    -1.121203247819543E-1   1.331565360339746E2  
 6.138400000000000E7    -1.126293622784846E-1   1.331050051506508E2  
 6.138550000000000E7    -1.132076708450308E-1   1.330496201568059E2  
 6.138700000000000E7    -1.134981969969034E-1   1.330062415770323E2  
 6.138850000000000E7    -1.141022345421417E-1   1.329469594013088E2  
 6.139000000000000E7    -1.138307396449089E-1   1.328955284409209E2  
 6.139150000000000E7    -1.148891277388176E-1   1.328426423200951E2  
 6.139300000000000E7    -1.155766157457913E-1   1.327909232857050E2  
 6.139450000000000E7    -1.157186918392781E-1   1.327360324278374E2  
 6.139600000000000E7    -1.171516307484477E-1   1.326869414295222E2  
 6.139750000000000E7    -1.176679256336521E-1   1.326306907779672E2  
 6.139900000000000E7    -1.178255133836312E-1   1.325766726990240E2  
 6.140050000000000E7    -1.187223060762508E-1   1.325262130821804E2  
 6.140200000000000E7    -1.197391779860679E-1   1.324734147915974E2  
 6.140350000000000E7    -1.198442323484535E-1   1.324097214671208E2  
 6.140500000000000E7    -1.212262503399337E-1   1.323594023856716E2  
 6.140650000000000E7    -1.213260615735307E-1   1.323050844156474E2  
 6.140800000000000E7    -1.220150727754377E-1   1.322465943682843E2  
 6.140950000000000E7    -1.223262538789821E-1   1.321943324164740E2  
 6.141100000000000E7    -1.231014079735287E-1   1.321365924234591E2  
 6.141250000000000E7    -1.236592059673940E-1   1.320786965638819E2  
 6.141400000000000E7    -1.234888212741651E-1   1.320223230471619E2  
 6.141550000000000E7    -1.238582617837503E-1   1.319634690462231E2  
 6.141700000000000E7    -1.251277061858829E-1   1.319028186048130E2  
 6.141850000000000E7    -1.253267139907241E-1   1.318521769369692E2  
 6.142000000000000E7    -1.267365656314087E-1   1.317937707104244E2  
 6.142150000000000E7    -1.269848425219662E-1   1.317362063607977E2  
 6.142300000000000E7    -1.284544931523414E-1   1.316765500246999E2  
