#  HZ   S   DB   R     50.00 
! Rohde & Schwarz Vector Network Analyzer 
! Rohde-Schwarz,ZNB8-4Port,1311601044102961,2.82
! Created: UTC 2/8/2022, 8:31:12 AM
! freq[Hz]                db:S11                  ang:S11                 db:S12                  ang:S12                 db:S13                  ang:S13
!                         db:S21                  ang:S21                 db:S22                  ang:S22                 db:S23                  ang:S23
!                         db:S31                  ang:S31                 db:S32                  ang:S32                 db:S33                  ang:S33
! 
 6.120000000000000E7    -1.170189795269644E-1    1.190947387581275E1    -7.426783872847000E1     6.993613829650802E1    -8.683333756167487E1    -1.157479235897138E2
                        -7.432719991047826E1     7.216995765328494E1    -4.941487988366501E-3   -4.708348861169149E1    -9.852959659310174E1     1.759737048139602E2
                        -8.678878813188280E1    -1.119427912535027E2    -1.057678939426653E2     4.440035122157259E1    -5.496074838732944E-3   -4.253004336438486E1

 6.120100000000000E7    -1.174806669064543E-1    1.187944128130621E1    -7.373119832312010E1     6.826079619442811E1    -8.740407808250563E1    -9.276232342376153E1
                        -7.390850350753136E1     7.205530157806922E1    -7.661524992791633E-3   -4.709148129789745E1    -9.826275708485262E1     4.891906927870437E1
                        -8.690005758975676E1    -1.084149352892041E2    -9.810408034639977E1    -1.484064101162145E2    -6.163347178870684E-3   -4.252331634535321E1

 6.120200000000000E7    -1.173844900806826E-1    1.185466312190120E1    -7.315294477385325E1     7.340636293515462E1    -9.061733849985583E1    -9.930990373881110E1
                        -7.419203927272677E1     7.057543612181506E1    -6.889458376625373E-3   -4.709291125733805E1    -1.009078501635417E2     8.410925316713457E1
                        -8.855138702613202E1    -8.479218678415836E1    -9.679748635507826E1     1.062854652378212E2    -7.528632348138895E-3   -4.252678482038759E1

 6.120300000000000E7    -1.175692631205383E-1    1.183763762882635E1    -7.396371335650086E1     6.936829756102077E1    -8.897638607025732E1    -1.218643081043070E2
                        -7.420949973740503E1     7.547788075806560E1    -7.833798156989104E-3   -4.711100946974809E1    -1.088423521753186E2    -1.212961601639992E2
                        -8.662783819547924E1    -1.145523301230052E2    -1.071694765692141E2    -1.335798485951025E1    -8.949588810042264E-3   -4.254903144141174E1

 6.120400000000000E7    -1.147016032373567E-1    1.181114404879766E1    -7.382660254391919E1     7.096004064741538E1    -8.943825402929417E1    -1.110614522504539E2
                        -7.379595952994075E1     6.869195174043990E1    -9.871545873361649E-3   -4.707835033593037E1    -9.648170455071819E1     8.345097873347916E1
                        -8.795702240557185E1    -1.176878838625496E2    -1.062132177909265E2     7.812334099225443E1    -7.676894965222333E-3   -4.252566141890694E1

 6.120500000000000E7    -1.195487228406085E-1    1.178927327086001E1    -7.428704581724377E1     6.734242560503594E1    -8.778173466236012E1    -1.107093848423941E2
                        -7.357976308603740E1     7.009827010381278E1    -6.040975090797978E-3   -4.708889867094005E1    -9.456910678000897E1    -1.670000180594129E1
                        -8.910693470073628E1    -1.068402114298373E2    -9.395117413339072E1    -3.880783012788010E1    -6.845188418763065E-3   -4.253631438734598E1

 6.120600000000000E7    -1.169428529167724E-1    1.176538545497538E1    -7.307313976758232E1     7.217082542212000E1    -9.145307993840090E1    -1.248886072284431E2
                        -7.445554393656121E1     6.975768651087853E1    -9.563967520521481E-3   -4.708877916167240E1    -1.032721342498821E2    -7.331021273614998E1
                        -8.534408350906878E1    -1.158665938487771E2    -9.810597407853243E1     4.651963397237001E1    -3.275292749365031E-3   -4.251994533697307E1

 6.120700000000000E7    -1.188583392232490E-1    1.172728381794688E1    -7.371009664910949E1     7.577521044270401E1    -8.620996582705735E1    -1.116109831042505E2
                        -7.389019480132922E1     7.214498340361692E1    -6.924490689640468E-3   -4.711391087312983E1    -1.014276025748704E2     9.959125750249784E1
                        -8.890739730133051E1    -1.160647428906324E2    -9.832023755197737E1    -6.336490847264075E1    -4.202419899326295E-3   -4.254221076150570E1

 6.120800000000000E7    -1.161681170793324E-1    1.170432565713912E1    -7.375153410722957E1     7.014716166850427E1    -8.902113241768009E1    -9.536805308922226E1
                        -7.386683532492972E1     7.440185324314687E1    -9.715840026247468E-3   -4.710500923705429E1    -9.546890508066588E1     3.533518035222316E1
                        -8.410795923019593E1    -1.079632760074060E2    -9.651228625853275E1    -3.862575875356333E1    -8.104969394262042E-3   -4.253685179886386E1

 6.120900000000000E7    -1.172369552314465E-1    1.167492846747868E1    -7.371360353767277E1     7.193477497796897E1    -8.727817975866120E1    -1.031557693430697E2
                        -7.392156958156144E1     6.800574654495377E1    -3.730010335771066E-3   -4.708649215487885E1    -9.575859086762237E1    -1.509907102686991E2
                        -8.857793230711665E1    -1.128634742231758E2    -9.847490895213429E1    -3.028475589429515E1    -8.142763066266604E-3   -4.253227487486591E1

 6.121000000000000E7    -1.172740433123130E-1    1.165227614446938E1    -7.385865069700648E1     7.491950191959515E1    -8.803670685262418E1    -1.267811015272527E2
                        -7.411833566234238E1     6.601046577005118E1    -7.056229521865805E-3   -4.708421455717457E1    -1.075919467230835E2    -1.688688695377719E2
                        -8.603122111743588E1    -1.158144193222285E2    -1.007260348424672E2    -9.856068805342710      -6.906950587296106E-3   -4.253986512389893E1

 6.121100000000000E7    -1.176335700118651E-1    1.162901478757061E1    -7.379947383802799E1     7.010490215825483E1    -8.705352933915404E1    -1.096268082183828E2
                        -7.372608792215613E1     7.138635610819151E1    -7.633253090401177E-3   -4.709170992094811E1    -9.833267056888766E1    -4.449199727650934E1
                        -8.908016901491392E1    -1.078101753243655E2    -1.089824491020185E2     8.779432364757136      -4.138211585354606E-3   -4.253080247987253E1

 6.121200000000000E7    -1.150707710331681E-1    1.160286054068659E1    -7.346072560828011E1     7.021244567116926E1    -8.620045744735421E1    -1.024929840945317E2
                        -7.362507050288919E1     7.105041853426933E1    -7.289540646640275E-3   -4.709432572906616E1    -9.418003262841231E1    -1.753654426279202E1
                        -8.901435117961924E1    -9.101246548497366E1    -1.015944274166345E2    -6.910659282831200E1    -7.044055984792902E-3   -4.254526662371287E1

 6.121300000000000E7    -1.181114363070208E-1    1.157466083574157E1    -7.375216053292705E1     7.167630680215311E1    -9.042195398121007E1    -1.198213964031508E2
                        -7.380901328716479E1     7.025219868097956E1    -5.468006606632994E-3   -4.708831586721076E1    -1.013167920296111E2     1.733798187311325E2
                        -8.507338549030250E1    -1.261366863270289E2    -9.402150653400163E1     3.376574325261026E1    -7.189118420551428E-3   -4.254710089697717E1

 6.121400000000000E7    -1.176055936719357E-1    1.156180459938338E1    -7.394981650493433E1     7.064308666998683E1    -8.662713519332419E1    -1.094628659894481E2
                        -7.406844316158251E1     7.142648433800207E1    -8.659112220731922E-3   -4.710961347249742E1    -9.601015800608650E1     1.181028727185973E1
                        -8.869943325309757E1    -1.273394232108957E2    -1.067013149344224E2    -1.383498342491522E1    -5.729742411306481E-3   -4.252562753830279E1

 6.121500000000000E7    -1.189932650300081E-1    1.153064985244473E1    -7.344076718507904E1     7.544462112614531E1    -8.710216958064025E1    -1.340815825996241E2
                        -7.333153942352223E1     7.535098030069737E1    -7.610570926784690E-3   -4.709470923922341E1    -9.539619649210449E1     4.518590341775995E1
                        -8.788192741006269E1    -1.004268527299026E2    -9.749280485781756E1     7.203018840225080E1    -5.598648700563101E-3   -4.255084863701621E1

 6.121600000000000E7    -1.169135857730050E-1    1.148477376912601E1    -7.350848206222867E1     6.605049788261995E1    -8.369608225302279E1    -1.120810782090470E2
                        -7.366038758030454E1     7.458834050859663E1    -9.078610827706540E-3   -4.710387962943739E1    -9.837365871533095E1     3.831299888945059E1
                        -8.622293710824980E1    -1.106721444971448E2    -1.005453421202878E2    -3.303426686951878E1    -5.836428659505139E-3   -4.255132235511962E1

 6.121700000000000E7    -1.163054572359065E-1    1.147172219713142E1    -7.251968280687488E1     6.911561842075703E1    -8.854316475569318E1    -8.197747196107052E1
                        -7.389637411707119E1     6.952234151384074E1    -7.377119128393261E-3   -4.709536575389623E1    -1.075740928048629E2    -2.008368049643916E1
                        -8.647890086615121E1    -1.194752596883871E2    -1.010013607129563E2     9.454910431601834E1    -7.011939095082968E-3   -4.254310948018606E1

 6.121800000000000E7    -1.170962848174927E-1    1.145012185371256E1    -7.310652707848126E1     7.105177292224364E1    -8.940619786554812E1    -7.839028817462207E1
                        -7.338830731383376E1     7.049949328524191E1    -5.148646263440944E-3   -4.709741832738959E1    -9.389159976864086E1    -1.075228066513505E2
                        -8.690605142910074E1    -1.180226257117688E2    -9.421895411785053E1     3.490851650863336E1    -5.422241968887123E-3   -4.254801399591907E1

 6.121900000000000E7    -1.184453447006942E-1    1.143146176596360E1    -7.341780136055357E1     7.354441522631400E1    -8.606962405045485E1    -1.173711054954187E2
                        -7.421382584931206E1     7.568786899804194E1    -7.524434780812314E-3   -4.708147821984149E1    -1.019117089051732E2    -8.380660809270671E1
                        -8.920167327242427E1    -1.232575314309902E2    -1.035858399905617E2     1.099648581878358E2    -7.628216207460017E-3   -4.254445804724466E1

 6.122000000000000E7    -1.198212500305945E-1    1.139419865407568E1    -7.297968579933459E1     6.913309274049571E1    -8.568644677552713E1    -1.175982185553754E2
                        -7.357677585837143E1     7.357401139043125E1    -8.339254621935403E-3   -4.711223201376897E1    -9.721343601806123E1    -3.288869049354460E1
                        -8.832009438538816E1    -8.860724427753237E1    -9.588889458948906E1     3.971841217970697E1    -5.721834848782345E-3   -4.254847678864240E1

 6.122100000000000E7    -1.179509143317166E-1    1.136346029621186E1    -7.323730065395401E1     7.176661870164529E1    -8.617194154289635E1    -1.093609083225011E2
                        -7.319257293102322E1     7.628503659494781E1    -9.993984086248867E-3   -4.708673261983271E1    -9.792223042335557E1    -8.995618578808180E1
                        -8.601264384192979E1    -1.162152750224010E2    -1.066562580198746E2    -1.304490488601039E1    -2.658058565719336E-3   -4.254505868059032E1

 6.122200000000000E7    -1.175666391456138E-1    1.134387404895680E1    -7.337803130000664E1     7.039029205253294E1    -8.863509734272141E1    -9.808032030454450E1
                        -7.340197611122180E1     6.912210628374722E1    -9.781007078996800E-3   -4.712207707406238E1    -9.291553007911668E1    -5.653098631393965E1
                        -8.596303656422887E1    -9.620343292625668E1    -1.014766521886995E2     2.520192461390990E1    -8.617269252607321E-3   -4.254015537600241E1

 6.122300000000000E7    -1.162559583423760E-1    1.133146033960128E1    -7.344983529748552E1     7.353793757478063E1    -9.101672048484431E1    -1.076367754595444E2
                        -7.392277970295352E1     7.528562604639983E1    -6.581348412723734E-3   -4.709899043584554E1    -1.018873524258738E2    -3.189623657484512E1
                        -8.537839024729789E1    -1.128153953756483E2    -1.004770595743723E2    -6.271028006201588E1    -5.870311436108086E-3   -4.254279184804867E1

 6.122400000000000E7    -1.187989301292386E-1    1.128816069587117E1    -7.415638043902627E1     7.258273515278798E1    -8.655571224823851E1    -1.139169627921214E2
                        -7.350819795361009E1     7.038302854883251E1    -9.511903458957799E-3   -4.708044147756963E1    -9.140247453520513E1     1.094656790404799E2
                        -8.777685034139522E1    -1.220950912811664E2    -9.816600170666938E1     9.053392250665957E1    -6.401625141801712E-3   -4.253825053694403E1

 6.122500000000000E7    -1.200100512369275E-1    1.125264088292248E1    -7.339962188060321E1     7.020580124177245E1    -8.717861254653877E1    -1.282371770106220E2
                        -7.387221087320481E1     6.830324315647526E1    -6.023997868799468E-3   -4.711585903457628E1    -1.081715660272292E2    -1.281486592634379E2
                        -8.880644549530366E1    -8.905000632600869E1    -9.646826512700885E1     1.179589610960092E2    -3.788144445172025E-3   -4.254557063757207E1

 6.122600000000000E7    -1.189144485006498E-1    1.122450007774102E1    -7.376366280183170E1     7.037160304044942E1    -8.474658397718403E1    -1.288226051889244E2
                        -7.369146553896280E1     7.160780810497531E1    -1.062399958206130E-2   -4.711391008214325E1    -9.471383379918390E1    -1.080698513349875E2
                        -8.420898280620405E1    -9.823741566653798E1    -9.853953464978545E1    -2.365489713783407E1    -7.006975286617957E-3   -4.254751199577366E1

 6.122700000000000E7    -1.207026839164058E-1    1.120384775521849E1    -7.369628359684670E1     7.198110232980561E1    -8.537379624229828E1    -1.226540304326547E2
                        -7.378729457202570E1     6.871536373946643E1    -7.936750141731220E-3   -4.712476573589185E1    -9.795131234966932E1     1.091547282168803E2
                        -8.941490949728900E1    -8.605346374528567E1    -9.715752797490694E1    -6.739381821436328E1    -7.356823008043228E-3   -4.255033795387543E1

 6.122800000000000E7    -1.215959167472494E-1    1.117732279753800E1    -7.353269503456281E1     6.680216112479300E1    -8.691467850384478E1    -1.161991484567424E2
                        -7.356049657187958E1     7.244692697388291E1    -6.999750187775246E-3   -4.710432813473795E1    -1.030199033751290E2    -2.291453776527545E1
                        -8.489479275455159E1    -1.259285377851252E2    -9.958848439972672E1    -1.688038966309529E2    -8.512056741690467E-3   -4.256210811077808E1

 6.122900000000000E7    -1.195639575562935E-1    1.115302483490934E1    -7.393096217441249E1     6.808667472484514E1    -8.662414373678574E1    -1.099625301448927E2
                        -7.354351299351374E1     6.943472344980630E1    -7.261214778906091E-3   -4.711130750160557E1    -9.558676941681483E1    -1.646146360569647E2
                        -8.561281351768834E1    -1.196008018380473E2    -9.643754645371266E1    -1.256620268243058E2    -5.980484585497546E-3   -4.254327725300502E1

 6.123000000000000E7    -1.188898504907942E-1    1.112716207003398E1    -7.328144286369707E1     6.959895469757289E1    -8.521069241402179E1    -1.046789037516746E2
                        -7.371334604052413E1     7.047264350151473E1    -9.899764187052764E-3   -4.710905149518858E1    -1.110902047024471E2    -1.854734750772426E1
                        -8.590633158982080E1    -1.056852669084487E2    -9.677831686470552E1     1.796149917677436E2    -7.666519046055832E-3   -4.254669782098193E1

 6.123100000000000E7    -1.181329465832269E-1    1.110686387092588E1    -7.373984717678337E1     7.029884979182793E1    -8.697113257072637E1    -1.101242993484476E2
                        -7.360067318936545E1     7.302303571840443E1    -7.333081436330708E-3   -4.711011188679211E1    -9.941311462638480E1    -8.258900088587319E1
                        -8.624782808397563E1    -9.416186082043438E1    -1.007702964716958E2     8.461454518296192      -5.085909745035879E-3   -4.253852770033388E1

 6.123200000000000E7    -1.184652166418482E-1    1.107005201195241E1    -7.303608704255089E1     7.519930046628838E1    -8.573884258244564E1    -9.981136752116882E1
                        -7.388224873470495E1     7.302906504156886E1    -6.856142148104425E-3   -4.711784702072907E1    -9.241916812619726E1    -1.945310684178858E1
                        -8.614642025025705E1    -1.044554296660582E2    -9.874878055109348E1    -4.744519724284134E1    -4.719544739299068E-3   -4.254820909465976E1

 6.123300000000000E7    -1.201127428607655E-1    1.106003600454754E1    -7.385725255270695E1     6.951914389820311E1    -8.460783497503891E1    -1.240790187374627E2
                        -7.344485512672758E1     7.590667463999822E1    -6.702480694253133E-3   -4.711215720752495E1    -9.848783279351710E1    -1.246441829346032E2
                        -8.572456594110696E1    -1.170900231946390E2    -9.993664114308018E1     4.953866449759011E1    -5.199414173560566E-3   -4.254034325372891E1

 6.123400000000000E7    -1.180262869444146E-1    1.103150389059850E1    -7.362689594563950E1     6.977321158840269E1    -8.779584561684698E1    -1.258934679427963E2
                        -7.342782703371741E1     6.855685150153285E1    -4.675030935293669E-3   -4.711306736924885E1    -1.060555243752660E2     4.173282598173260E1
                        -8.711407201135147E1    -1.057236655392443E2    -9.472650179412716E1    -1.444651771396339E1    -6.615376047986604E-3   -4.254404446005511E1

 6.123500000000000E7    -1.191139233809522E-1    1.100057211890676E1    -7.322499100416701E1     7.052979800137985E1    -8.567473904318530E1    -1.375974986877967E2
                        -7.312607168751694E1     6.936575192260753E1    -6.546632497621796E-3   -4.709273778561543E1    -9.197256449180374E1    -8.295425935319427E1
                        -8.739694437768492E1    -1.145623241826714E2    -1.028615184508156E2     1.203410964630129E1    -5.358399218419985E-3   -4.255784700228747E1

 6.123600000000000E7    -1.207425381061795E-1    1.096676798107770E1    -7.341925522248511E1     7.112325393007184E1    -8.652226004828125E1    -1.126950785649026E2
                        -7.316351748681308E1     7.491981414756586E1    -5.584264627779171E-3   -4.714156768813000E1    -1.075055452679982E2    -4.075461439073754E1
                        -8.764975275582421E1    -1.182971700958050E2    -1.006194544390304E2     4.082980036221351E1    -7.197018615378397E-3   -4.256768921884263E1

 6.123700000000000E7    -1.186893630118574E-1    1.095131105429277E1    -7.312369398097846E1     6.692514510444924E1    -8.639128128509518E1    -1.167328593792290E2
                        -7.403085586194277E1     6.911485812390934E1    -7.509955158917641E-3   -4.711970182391566E1    -1.031415192399108E2     5.565594491165938E1
                        -8.805148396595689E1    -9.826206438341890E1    -9.715116078803042E1     4.992280495225455E1    -8.308515445793859E-3   -4.256356856828000E1

 6.123800000000000E7    -1.202374379819877E-1    1.092537467914358E1    -7.396567949470669E1     6.916882253113960E1    -8.385674001226187E1    -1.113941014276255E2
                        -7.395989491464951E1     6.691470636697460E1    -8.790888410158319E-3   -4.710224163990316E1    -9.854102088412313E1    -2.131326507942693E1
                        -8.678407904334380E1    -1.143444937132304E2    -1.069075402514163E2     6.475352828232981E1    -6.824107657031245E-3   -4.255684127882685E1

