#  HZ   S   DB   R     50.00 
! Rohde & Schwarz Vector Network Analyzer 
! Rohde-Schwarz,ZNB8-4Port,1311601044102961,2.82
! Created: UTC 7/28/2022, 12:37:54 PM
!The following Port Impedance Renormalization has been used when saving the data.
!PortZ  Port1:50+j0
! freq[Hz]                db:S11                  ang:S11
 6.200000000000000E7    -1.927849469475022E-1    1.539987552123627
 6.200500000000000E7    -1.938107420525421E-1    1.378515113047625
 6.201000000000000E7    -1.939743777826504E-1    1.210570133881395
 6.201500000000000E7    -1.924986427615023E-1    1.042554508479864
 6.202000000000000E7    -1.906815495788152E-1    8.790584099536130E-1
 6.202500000000000E7    -1.976551579534017E-1    7.002407769417816E-1
 6.203000000000000E7    -1.961251838809310E-1    5.312023729465532E-1
 6.203500000000000E7    -1.971894575611830E-1    3.456221880100082E-1
 6.204000000000000E7    -1.985246493246324E-1    1.666713292233334E-1
 6.204500000000000E7    -2.014109055980662E-1    5.295249742982844E-3
 6.205000000000000E7    -1.979795894230126E-1   -2.038219990012243E-1
 6.205500000000000E7    -2.037695868530840E-1   -3.699271248383416E-1
 6.206000000000000E7    -2.050216302192817E-1   -5.774202747473682E-1
 6.206500000000000E7    -2.064191539919213E-1   -7.585696781126308E-1
 6.207000000000000E7    -2.088261504190435E-1   -9.738288205886487E-1
 6.207500000000000E7    -2.121346562170331E-1   -1.145781468876506
 6.208000000000000E7    -2.120095216247171E-1   -1.339855167143812
 6.208500000000000E7    -2.164069618635441E-1   -1.576408160684947
 6.209000000000000E7    -2.187378650312820E-1   -1.824053445034825
 6.209500000000000E7    -2.188549949241768E-1   -2.040818858764122
 6.210000000000000E7    -2.231093204607522E-1   -2.205411616219777
 6.210500000000000E7    -2.295653753838030E-1   -2.463720296740549
 6.211000000000000E7    -2.344754959080581E-1   -2.673485287481512
 6.211500000000000E7    -2.307897763096410E-1   -2.910712675643977
 6.212000000000000E7    -2.386756940608238E-1   -3.188844728329102
 6.212500000000000E7    -2.358692196582274E-1   -3.405988819332161
 6.213000000000000E7    -2.413341112204435E-1   -3.688019134122197
 6.213500000000000E7    -2.478835830208014E-1   -3.958718333268366
 6.214000000000000E7    -2.514252229278066E-1   -4.250960215687492
 6.214500000000000E7    -2.587551379995888E-1   -4.521619106948888
 6.215000000000000E7    -2.624959928401466E-1   -4.766489153011075
 6.215500000000000E7    -2.641574153254847E-1   -5.075871091648931
 6.216000000000000E7    -2.706986007283964E-1   -5.349719408996105
 6.216500000000000E7    -2.776297388915027E-1   -5.679893931249598
 6.217000000000000E7    -2.820803523033926E-1   -5.977398875245102
 6.217500000000000E7    -2.913179205210028E-1   -6.363578570729393
 6.218000000000000E7    -3.005123031034664E-1   -6.676894267581066
 6.218500000000000E7    -3.049815556320265E-1   -7.058074822009159
 6.219000000000000E7    -3.129908389312199E-1   -7.408529323945018
 6.219500000000000E7    -3.198261351465813E-1   -7.812528132102995
 6.220000000000000E7    -3.341508888132926E-1   -8.181234874548393
 6.220500000000000E7    -3.453063371154636E-1   -8.610509540217727
 6.221000000000000E7    -3.569771737246699E-1   -9.035709921340645
 6.221500000000000E7    -3.675332185128910E-1   -9.521105514032310
 6.222000000000000E7    -3.815179685288070E-1   -1.000985294751782E1
 6.222500000000000E7    -3.947469742011764E-1   -1.050487986891596E1
 6.223000000000000E7    -4.080510157704015E-1   -1.103615010020356E1
 6.223500000000000E7    -4.316189697900542E-1   -1.157740973547720E1
 6.224000000000000E7    -4.552435272691665E-1   -1.219901207335773E1
 6.224500000000000E7    -4.753519276554089E-1   -1.279049822334394E1
 6.225000000000000E7    -4.972340700256883E-1   -1.343947239311239E1
 6.225500000000000E7    -5.302145297191008E-1   -1.415086343490314E1
 6.226000000000000E7    -5.601366685050738E-1   -1.487693984166302E1
 6.226500000000000E7    -5.941528436786674E-1   -1.567822601838619E1
 6.227000000000000E7    -6.350782073810080E-1   -1.651808695708590E1
 6.227500000000000E7    -6.786691126840748E-1   -1.745505679396684E1
 6.228000000000000E7    -7.317109884328790E-1   -1.840496432213505E1
 6.228500000000000E7    -7.849111499587411E-1   -1.948744403236999E1
 6.229000000000000E7    -8.509102488583689E-1   -2.061093807964516E1
 6.229500000000000E7    -9.269527387746984E-1   -2.183632590681779E1
 6.230000000000000E7    -1.017914445401997      -2.317497858755204E1
 6.230500000000000E7    -1.126049235110067      -2.467703009821761E1
 6.231000000000000E7    -1.249423035377956      -2.631657301791435E1
 6.231500000000000E7    -1.395065697913298      -2.807823056165961E1
 6.232000000000000E7    -1.572451866670424      -3.012333337193818E1
 6.232500000000000E7    -1.784917833309772      -3.228441345173047E1
 6.233000000000000E7    -2.045250448572016      -3.475914639466976E1
 6.233500000000000E7    -2.372344957280408      -3.754023642734499E1
 6.234000000000000E7    -2.778929589657635      -4.063307025822424E1
 6.234500000000000E7    -3.289219715809709      -4.409499674978355E1
 6.235000000000000E7    -3.952498336659021      -4.798569224673415E1
 6.235500000000000E7    -4.810339906393721      -5.231737918627807E1
 6.236000000000000E7    -5.967412127953771      -5.715019928106909E1
 6.236500000000000E7    -7.543425468770800      -6.235269884125642E1
 6.237000000000000E7    -9.797909168274060      -6.790804116547014E1
 6.237500000000000E7    -1.330781318364081E1    -7.311512393326152E1
 6.238000000000000E7    -1.984412817528277E1    -7.541480944216377E1
 6.238500000000000E7    -3.224202189563066E1     4.972772926365304E1
 6.239000000000000E7    -1.720995363093394E1     7.571983614034008E1
 6.239500000000000E7    -1.207781755385507E1     7.188651670811875E1
 6.240000000000000E7    -9.097994123445929       6.668809879524929E1
 6.240500000000000E7    -7.114878431525563       6.138759551657029E1
 6.241000000000000E7    -5.698097831985059       5.640733041265681E1
 6.241500000000000E7    -4.653310244830648       5.189140721902899E1
 6.242000000000000E7    -3.872368146368802       4.785602753358888E1
 6.242500000000000E7    -3.258262760301822       4.421508648715543E1
 6.243000000000000E7    -2.790426490206265       4.101119114952740E1
 6.243500000000000E7    -2.409305993703538       3.810354980565520E1
 6.244000000000000E7    -2.104461716160984       3.552378609167794E1
 6.244500000000000E7    -1.855785304619547       3.323934355881089E1
 6.245000000000000E7    -1.650415380165144       3.114862517187687E1
 6.245500000000000E7    -1.474851000855808       2.924920595139529E1
 6.246000000000000E7    -1.332595740657153       2.757780643827085E1
 6.246500000000000E7    -1.211737059050285       2.601281036768310E1
 6.247000000000000E7    -1.105294506671739       2.462284723323587E1
 6.247500000000000E7    -1.015406771495362       2.333430990226471E1
 6.248000000000000E7    -9.401592184114180E-1    2.216449485898009E1
 6.248500000000000E7    -8.683242427989725E-1    2.106528027955073E1
 6.249000000000000E7    -8.155057495162809E-1    2.005324496287651E1
 6.249500000000000E7    -7.634740392752140E-1    1.913613824579861E1
 6.250000000000000E7    -7.180788612619536E-1    1.825246567457008E1
 6.250500000000000E7    -6.762398405675674E-1    1.745074342808788E1
 6.251000000000000E7    -6.359790351365902E-1    1.667691000876206E1
 6.251500000000000E7    -6.064694279051852E-1    1.599457371305853E1
 6.252000000000000E7    -5.790167400126061E-1    1.532759077735618E1
 6.252500000000000E7    -5.490532196572122E-1    1.468095482773327E1
 6.253000000000000E7    -5.264564826604725E-1    1.407488925477946E1
 6.253500000000000E7    -4.987865797965960E-1    1.347893716417734E1
 6.254000000000000E7    -4.821486589190469E-1    1.295064785415618E1
 6.254500000000000E7    -4.653534218198403E-1    1.242121573745057E1
 6.255000000000000E7    -4.496807819950512E-1    1.195411995125971E1
 6.255500000000000E7    -4.307371692789014E-1    1.151028293740991E1
 6.256000000000000E7    -4.182667034680436E-1    1.104893266665856E1
 6.256500000000000E7    -4.039944518763428E-1    1.063462310608316E1
 6.257000000000000E7    -3.968754531530663E-1    1.020770666345920E1
 6.257500000000000E7    -3.800824882347398E-1    9.839498893150950
 6.258000000000000E7    -3.704741003959995E-1    9.468271738020322
 6.258500000000000E7    -3.622173904708783E-1    9.086086859957158
 6.259000000000000E7    -3.537776274438401E-1    8.711071735228334
 6.259500000000000E7    -3.438349886647656E-1    8.398699197229352
 6.260000000000000E7    -3.350532028037072E-1    8.071294695571758
 6.260500000000000E7    -3.259394080607935E-1    7.751047677310575
 6.261000000000000E7    -3.191428442130340E-1    7.450083585886403
 6.261500000000000E7    -3.167118251437009E-1    7.143813827462934
 6.262000000000000E7    -3.067586305794894E-1    6.856174272135955
 6.262500000000000E7    -3.029760545301279E-1    6.567772625671975
 6.263000000000000E7    -2.931826801306129E-1    6.311811359905335
 6.263500000000000E7    -2.927741804149462E-1    6.025044832277768
 6.264000000000000E7    -2.913650061530677E-1    5.790462421939658
 6.264500000000000E7    -2.829632439232204E-1    5.526395019301238
 6.265000000000000E7    -2.802617061020110E-1    5.288981992440285
 6.265500000000000E7    -2.720358593441801E-1    5.060558679198485
 6.266000000000000E7    -2.692464933991234E-1    4.807756683308777
 6.266500000000000E7    -2.701600299890188E-1    4.611471254530667
 6.267000000000000E7    -2.661623278624507E-1    4.354678212050812
 6.267500000000000E7    -2.608785436779032E-1    4.149557080039166
 6.268000000000000E7    -2.521098072822199E-1    3.930164579855689
 6.268500000000000E7    -2.542279069025053E-1    3.714155576856884
 6.269000000000000E7    -2.501089973810561E-1    3.489757518800279
 6.269500000000000E7    -2.490494566829165E-1    3.314298848995439
 6.270000000000000E7    -2.452049710483913E-1    3.092112632797476
 6.270500000000000E7    -2.460600089415538E-1    2.943475622954936
 6.271000000000000E7    -2.422423192648181E-1    2.731602962761132
 6.271500000000000E7    -2.402579721419292E-1    2.558579045980552
 6.272000000000000E7    -2.384398644069926E-1    2.333576918608592
 6.272500000000000E7    -2.355478878101593E-1    2.145552754698665
 6.273000000000000E7    -2.289756087638948E-1    1.971407127800446
 6.273500000000000E7    -2.332319951543283E-1    1.801256043003828
 6.274000000000000E7    -2.312271050819797E-1    1.617156439728746
 6.274500000000000E7    -2.233717818171211E-1    1.454590732778289
 6.275000000000000E7    -2.251119643046113E-1    1.303305769552126
 6.275500000000000E7    -2.239287802595391E-1    1.111309813028009
 6.276000000000000E7    -2.231861557732869E-1    9.322937720825122E-1
 6.276500000000000E7    -2.204328786162811E-1    7.742751235919038E-1
 6.277000000000000E7    -2.218785609242981E-1    6.061833535738890E-1
 6.277500000000000E7    -2.170083097024095E-1    4.702988033777210E-1
 6.278000000000000E7    -2.120755297220091E-1    3.140720806956404E-1
 6.278500000000000E7    -2.144113491793925E-1    1.321810286176634E-1
 6.279000000000000E7    -2.066105763979996E-1   -1.517724622823665E-2
 6.279500000000000E7    -2.149981893986896E-1   -1.839358027680958E-1
 6.280000000000000E7    -2.085729826988811E-1   -2.959484205790149E-1
 6.280500000000000E7    -2.080283328615399E-1   -4.446889034739787E-1
 6.281000000000000E7    -2.049711343855823E-1   -6.247920857124777E-1
 6.281500000000000E7    -2.058226854270335E-1   -7.400188824197144E-1
 6.282000000000000E7    -2.063847798171478E-1   -8.722743624065272E-1
 6.282500000000000E7    -2.047331398784802E-1   -1.051141891980498
 6.283000000000000E7    -2.049597259071955E-1   -1.181558378637895
 6.283500000000000E7    -2.009039647177064E-1   -1.337413995053448
 6.284000000000000E7    -2.025062187110100E-1   -1.439775577700637
 6.284500000000000E7    -2.003459289768944E-1   -1.595543880160565
 6.285000000000000E7    -1.975558529751920E-1   -1.729145569040827
 6.285500000000000E7    -1.968438704441107E-1   -1.865613092886858
 6.286000000000000E7    -1.966199095428731E-1   -2.022552935704504
 6.286500000000000E7    -1.982704242028286E-1   -2.168315375630348
 6.287000000000000E7    -1.970368167937167E-1   -2.274337532185691
 6.287500000000000E7    -1.951101644370542E-1   -2.401154216001783
 6.288000000000000E7    -1.928217770641696E-1   -2.548689634590195
 6.288500000000000E7    -1.934142360703294E-1   -2.648173934382766
 6.289000000000000E7    -1.946409384502315E-1   -2.792454562210932
 6.289500000000000E7    -1.890350118890701E-1   -2.887544361969129
 6.290000000000000E7    -1.919604634758169E-1   -3.039424100544287
 6.290500000000000E7    -1.927778651610932E-1   -3.170412349455121
 6.291000000000000E7    -1.911598644228310E-1   -3.268888142797380
 6.291500000000000E7    -1.922648609286255E-1   -3.403272996274327
 6.292000000000000E7    -1.927739469134564E-1   -3.545627110432606
 6.292500000000000E7    -1.936137126433377E-1   -3.659950160366845
 6.293000000000000E7    -1.909024527475305E-1   -3.784235837703418
 6.293500000000000E7    -1.872876627026470E-1   -3.882091641939656
 6.294000000000000E7    -1.888116993010034E-1   -4.036946081473640
 6.294500000000000E7    -1.867084035025879E-1   -4.137825478498803
 6.295000000000000E7    -1.918986230901836E-1   -4.260044068959114
 6.295500000000000E7    -1.827428494187739E-1   -4.407147774637436
 6.296000000000000E7    -1.855693806409701E-1   -4.479674303489346
 6.296500000000000E7    -1.820042093514555E-1   -4.630065402244247
 6.297000000000000E7    -1.853462767976758E-1   -4.752012334997256
 6.297500000000000E7    -1.847096817623423E-1   -4.864661635114154
 6.298000000000000E7    -1.897941444706124E-1   -4.965810813370348
 6.298500000000000E7    -1.861274435208664E-1   -5.101190274409770
 6.299000000000000E7    -1.825015014207486E-1   -5.205047639476107
 6.299500000000000E7    -1.818107107571037E-1   -5.325212493669466
 6.300000000000000E7    -1.810393296213610E-1   -5.440284820585697
